(1749194600.286776) vcan_motor_drv 226#3112000000000000
(1749194600.290622) vcan_motor_drv 226#3112000000000000
(1749194600.294620) vcan_motor_drv 226#3112000000000000
(1749194600.298621) vcan_motor_drv 226#3112000000000000
(1749194600.302617) vcan_motor_drv 226#3112000000000000
(1749194600.306613) vcan_motor_drv 226#3112000000000000
(1749194600.310666) vcan_motor_drv 226#3112000000000000
(1749194600.314663) vcan_motor_drv 226#3112000000000000
(1749194600.318663) vcan_motor_drv 226#3112000000000000
(1749194600.322664) vcan_motor_drv 226#3112000000000000
(1749194600.326663) vcan_motor_drv 226#3112000000000000
(1749194600.330664) vcan_motor_drv 226#3112000000000000
(1749194600.334664) vcan_motor_drv 226#3112000000000000
(1749194600.338664) vcan_motor_drv 226#3112000000000000
(1749194600.342665) vcan_motor_drv 226#3112000000000000
(1749194600.346665) vcan_motor_drv 226#3112000000000000
(1749194600.350667) vcan_motor_drv 226#3112000000000000
(1749194600.354664) vcan_motor_drv 226#3112000000000000
(1749194600.358664) vcan_motor_drv 226#3112000000000000
(1749194600.362934) vcan_motor_drv 226#3112000000000000
(1749194600.366933) vcan_motor_drv 226#3112000000000000
(1749194600.370938) vcan_motor_drv 226#3112000000000000
(1749194600.374664) vcan_motor_drv 226#3112000000000000
(1749194600.378663) vcan_motor_drv 226#3112000000000000
(1749194600.382663) vcan_motor_drv 226#3112000000000000
(1749194600.386665) vcan_motor_drv 226#3112000000000000
(1749194600.390665) vcan_motor_drv 226#3112000000000000
(1749194600.394664) vcan_motor_drv 226#3112000000000000
(1749194600.398980) vcan_motor_drv 226#3112000000000000
(1749194600.402983) vcan_motor_drv 226#3112000000000000
(1749194600.406995) vcan_motor_drv 226#3112000000000000
(1749194600.411012) vcan_motor_drv 226#3112000000000000
(1749194600.414663) vcan_motor_drv 226#3112000000000000
(1749194600.418841) vcan_motor_drv 226#3112000000000000
(1749194600.422664) vcan_motor_drv 226#3112000000000000
(1749194600.426665) vcan_motor_drv 226#3112000000000000
(1749194600.430665) vcan_motor_drv 226#3112000000000000
(1749194600.435058) vcan_motor_drv 226#3112000000000000
(1749194600.439061) vcan_motor_drv 226#3112000000000000
(1749194600.442940) vcan_motor_drv 226#3112000000000000
(1749194600.446682) vcan_motor_drv 226#3112000000000000
(1749194600.450663) vcan_motor_drv 226#3112000000000000
(1749194600.454663) vcan_motor_drv 226#3112000000000000
(1749194600.458945) vcan_motor_drv 226#3112000000000000
(1749194600.462946) vcan_motor_drv 226#3112000000000000
(1749194600.466949) vcan_motor_drv 226#3112000000000000
(1749194600.470792) vcan_motor_drv 226#3112000000000000
(1749194600.474950) vcan_motor_drv 226#3112000000000000
(1749194600.478947) vcan_motor_drv 226#3112000000000000
(1749194600.482947) vcan_motor_drv 226#3112000000000000
(1749194600.486947) vcan_motor_drv 226#3112000000000000
(1749194600.490949) vcan_motor_drv 226#3112000000000000
(1749194600.494946) vcan_motor_drv 226#3112000000000000
(1749194600.498945) vcan_motor_drv 226#3112000000000000
(1749194600.502944) vcan_motor_drv 226#3112000000000000
(1749194600.506948) vcan_motor_drv 226#3112000000000000
(1749194600.510652) vcan_motor_drv 226#3112000000000000
(1749194600.514664) vcan_motor_drv 226#3112000000000000
(1749194600.518663) vcan_motor_drv 226#3112000000000000
(1749194600.522664) vcan_motor_drv 226#3112000000000000
(1749194600.526664) vcan_motor_drv 226#3112000000000000
(1749194600.530663) vcan_motor_drv 226#3112000000000000
(1749194600.534948) vcan_motor_drv 226#3112000000000000
(1749194600.538949) vcan_motor_drv 226#3112000000000000
(1749194600.542952) vcan_motor_drv 226#3112000000000000
(1749194600.546776) vcan_motor_drv 226#3112000000000000
(1749194600.550955) vcan_motor_drv 226#3112000000000000
(1749194600.554955) vcan_motor_drv 226#3112000000000000
(1749194600.558952) vcan_motor_drv 226#3112000000000000
(1749194600.562685) vcan_motor_drv 226#3112000000000000
(1749194600.566662) vcan_motor_drv 226#3112000000000000
(1749194600.570952) vcan_motor_drv 226#3112000000000000
(1749194600.574663) vcan_motor_drv 226#3112000000000000
(1749194600.578953) vcan_motor_drv 226#3112000000000000
(1749194600.582951) vcan_motor_drv 226#3112000000000000
(1749194600.586951) vcan_motor_drv 226#3112000000000000
(1749194600.590954) vcan_motor_drv 226#3112000000000000
(1749194600.594952) vcan_motor_drv 226#3112000000000000
(1749194600.598948) vcan_motor_drv 226#3112000000000000
(1749194600.602943) vcan_motor_drv 226#3112000000000000
(1749194600.606942) vcan_motor_drv 226#3112000000000000
(1749194600.610663) vcan_motor_drv 226#3112000000000000
(1749194600.614940) vcan_motor_drv 226#3112000000000000
(1749194600.618954) vcan_motor_drv 226#3112000000000000
(1749194600.622942) vcan_motor_drv 226#3112000000000000
(1749194600.626940) vcan_motor_drv 226#3112000000000000
(1749194600.630665) vcan_motor_drv 226#3112000000000000
(1749194600.634958) vcan_motor_drv 226#3112000000000000
(1749194600.638978) vcan_motor_drv 226#3112000000000000
(1749194600.642987) vcan_motor_drv 226#3112000000000000
(1749194600.646678) vcan_motor_drv 226#3112000000000000
(1749194600.650957) vcan_motor_drv 226#3112000000000000
(1749194600.654664) vcan_motor_drv 226#3112000000000000
(1749194600.659007) vcan_motor_drv 226#3112000000000000
(1749194600.662940) vcan_motor_drv 226#3112000000000000
(1749194600.667030) vcan_motor_drv 226#3112000000000000
(1749194600.670958) vcan_motor_drv 226#3112000000000000
(1749194600.675004) vcan_motor_drv 226#3112000000000000
(1749194600.678948) vcan_motor_drv 226#3112000000000000
(1749194600.683038) vcan_motor_drv 226#3112000000000000
(1749194600.687038) vcan_motor_drv 226#3112000000000000
(1749194600.691086) vcan_motor_drv 226#3112000000000000
(1749194600.695063) vcan_motor_drv 226#3112000000000000
(1749194600.698982) vcan_motor_drv 226#3112000000000000
(1749194600.703000) vcan_motor_drv 226#3112000000000000
(1749194600.707111) vcan_motor_drv 226#3112000000000000
(1749194600.711006) vcan_motor_drv 226#3112000000000000
(1749194600.715071) vcan_motor_drv 226#3112000000000000
(1749194600.719010) vcan_motor_drv 226#3112000000000000
(1749194600.722663) vcan_motor_drv 226#3112000000000000
(1749194600.727146) vcan_motor_drv 226#3112000000000000
(1749194600.730663) vcan_motor_drv 226#3112000000000000
(1749194600.735158) vcan_motor_drv 226#3112000000000000
(1749194600.739165) vcan_motor_drv 226#3112000000000000
(1749194600.743187) vcan_motor_drv 226#3112000000000000
(1749194600.746680) vcan_motor_drv 226#3112000000000000
(1749194600.751193) vcan_motor_drv 226#3112000000000000
(1749194600.755181) vcan_motor_drv 226#3112000000000000
(1749194600.758663) vcan_motor_drv 226#3112000000000000
(1749194600.763184) vcan_motor_drv 226#3112000000000000
(1749194600.767203) vcan_motor_drv 226#3112000000000000
(1749194600.771113) vcan_motor_drv 226#3112000000000000
(1749194600.775163) vcan_motor_drv 226#3112000000000000
(1749194600.779250) vcan_motor_drv 226#3112000000000000
(1749194600.783234) vcan_motor_drv 226#3112000000000000
(1749194600.787164) vcan_motor_drv 226#3112000000000000
(1749194600.790665) vcan_motor_drv 226#3112000000000000
(1749194600.795199) vcan_motor_drv 226#3112000000000000
(1749194600.799265) vcan_motor_drv 226#3112000000000000
(1749194600.803297) vcan_motor_drv 226#3112000000000000
(1749194600.806923) vcan_motor_drv 226#3112000000000000
(1749194600.810941) vcan_motor_drv 226#3112000000000000
(1749194600.814663) vcan_motor_drv 226#3112000000000000
(1749194600.818932) vcan_motor_drv 226#3112000000000000
(1749194600.822664) vcan_motor_drv 226#3112000000000000
(1749194600.826933) vcan_motor_drv 226#3112000000000000
(1749194600.830665) vcan_motor_drv 226#3112000000000000
(1749194600.834934) vcan_motor_drv 226#3112000000000000
(1749194600.838933) vcan_motor_drv 226#3112000000000000
(1749194600.842946) vcan_motor_drv 226#3112000000000000
(1749194600.846681) vcan_motor_drv 226#3112000000000000
(1749194600.850934) vcan_motor_drv 226#3112000000000000
(1749194600.854663) vcan_motor_drv 226#3112000000000000
(1749194600.858934) vcan_motor_drv 226#3112000000000000
(1749194600.862937) vcan_motor_drv 226#3112000000000000
(1749194600.866664) vcan_motor_drv 226#3112000000000000
(1749194600.870644) vcan_motor_drv 226#3112000000000000
(1749194600.874623) vcan_motor_drv 226#3112000000000000
(1749194600.878621) vcan_motor_drv 226#3112000000000000
(1749194600.882622) vcan_motor_drv 226#3112000000000000
(1749194600.886631) vcan_motor_drv 226#3112000000000000
(1749194600.890619) vcan_motor_drv 226#3112000000000000
(1749194600.894624) vcan_motor_drv 226#3112000000000000
(1749194600.898624) vcan_motor_drv 226#3112000000000000
(1749194600.902628) vcan_motor_drv 226#3112000000000000
(1749194600.906619) vcan_motor_drv 226#3112000000000000
(1749194600.910619) vcan_motor_drv 226#3112000000000000
(1749194600.914624) vcan_motor_drv 226#3112000000000000
(1749194600.918626) vcan_motor_drv 226#3112000000000000
(1749194600.922618) vcan_motor_drv 226#3112000000000000
(1749194600.926633) vcan_motor_drv 226#3112000000000000
(1749194600.930633) vcan_motor_drv 226#3112000000000000
(1749194600.934637) vcan_motor_drv 226#3112000000000000
(1749194600.938620) vcan_motor_drv 226#3112000000000000
(1749194600.942633) vcan_motor_drv 226#3112000000000000
(1749194600.946637) vcan_motor_drv 226#3112000000000000
(1749194600.950617) vcan_motor_drv 226#3112000000000000
(1749194600.954618) vcan_motor_drv 226#3112000000000000
(1749194600.958616) vcan_motor_drv 226#3112000000000000
(1749194600.962616) vcan_motor_drv 226#3112000000000000
(1749194600.966615) vcan_motor_drv 226#3112000000000000
(1749194600.970614) vcan_motor_drv 226#3112000000000000
(1749194600.974621) vcan_motor_drv 226#3112000000000000
(1749194600.978631) vcan_motor_drv 226#3112000000000000
(1749194600.982622) vcan_motor_drv 226#3112000000000000
(1749194600.986614) vcan_motor_drv 226#3112000000000000
(1749194600.990622) vcan_motor_drv 226#3112000000000000
(1749194600.994634) vcan_motor_drv 226#3112000000000000
(1749194600.998616) vcan_motor_drv 226#3112000000000000
(1749194601.002611) vcan_motor_drv 226#3112000000000000
(1749194601.006613) vcan_motor_drv 226#3112000000000000
(1749194601.010640) vcan_motor_drv 226#3112000000000000
(1749194601.014628) vcan_motor_drv 226#3112000000000000
(1749194601.018621) vcan_motor_drv 226#3112000000000000
(1749194601.022619) vcan_motor_drv 226#3112000000000000
(1749194601.026624) vcan_motor_drv 226#3112000000000000
(1749194601.030619) vcan_motor_drv 226#3112000000000000
(1749194601.034617) vcan_motor_drv 226#3112000000000000
(1749194601.038614) vcan_motor_drv 226#3112000000000000
(1749194601.042623) vcan_motor_drv 226#3112000000000000
(1749194601.046637) vcan_motor_drv 226#3112000000000000
(1749194601.050633) vcan_motor_drv 226#3112000000000000
(1749194601.054628) vcan_motor_drv 226#3112000000000000
(1749194601.058623) vcan_motor_drv 226#3112000000000000
(1749194601.062624) vcan_motor_drv 226#3112000000000000
(1749194601.066624) vcan_motor_drv 226#3112000000000000
(1749194601.070624) vcan_motor_drv 226#3112000000000000
(1749194601.074641) vcan_motor_drv 226#3112000000000000
(1749194601.078624) vcan_motor_drv 226#3112000000000000
(1749194601.082620) vcan_motor_drv 226#3112000000000000
(1749194601.086619) vcan_motor_drv 226#3112000000000000
(1749194601.090619) vcan_motor_drv 226#3112000000000000
(1749194601.094621) vcan_motor_drv 226#3112000000000000
(1749194601.098620) vcan_motor_drv 226#3112000000000000
(1749194601.102621) vcan_motor_drv 226#3112000000000000
(1749194601.106626) vcan_motor_drv 226#3112000000000000
(1749194601.110631) vcan_motor_drv 226#3112000000000000
(1749194601.114618) vcan_motor_drv 226#3112000000000000
(1749194601.118618) vcan_motor_drv 226#3112000000000000
(1749194601.122611) vcan_motor_drv 226#3112000000000000
(1749194601.126615) vcan_motor_drv 226#3112000000000000
(1749194601.130617) vcan_motor_drv 226#3112000000000000
(1749194601.134616) vcan_motor_drv 226#3112000000000000
(1749194601.138617) vcan_motor_drv 226#3112000000000000
(1749194601.142625) vcan_motor_drv 226#3112000000000000
(1749194601.146621) vcan_motor_drv 226#3112000000000000
(1749194601.150630) vcan_motor_drv 226#3112000000000000
(1749194601.154629) vcan_motor_drv 226#3112000000000000
(1749194601.158628) vcan_motor_drv 226#3112000000000000
(1749194601.162622) vcan_motor_drv 226#3112000000000000
(1749194601.166621) vcan_motor_drv 226#3112000000000000
(1749194601.170621) vcan_motor_drv 226#3112000000000000
(1749194601.174622) vcan_motor_drv 226#3112000000000000
(1749194601.178631) vcan_motor_drv 226#3112000000000000
(1749194601.182629) vcan_motor_drv 226#3112000000000000
(1749194601.186631) vcan_motor_drv 226#3112000000000000
(1749194601.190631) vcan_motor_drv 226#3112000000000000
(1749194601.194631) vcan_motor_drv 226#3112000000000000
(1749194601.198618) vcan_motor_drv 226#3112000000000000
(1749194601.202664) vcan_motor_drv 226#3112000000000000
(1749194601.206664) vcan_motor_drv 226#3112000000000000
(1749194601.210655) vcan_motor_drv 226#3112000000000000
(1749194601.214659) vcan_motor_drv 226#3112000000000000
(1749194601.218664) vcan_motor_drv 226#3112000000000000
(1749194601.222664) vcan_motor_drv 226#3112000000000000
(1749194601.226651) vcan_motor_drv 226#3112000000000000
(1749194601.230635) vcan_motor_drv 226#3112000000000000
(1749194601.234627) vcan_motor_drv 226#3112000000000000
(1749194601.238617) vcan_motor_drv 226#3112000000000000
(1749194601.242621) vcan_motor_drv 226#3112000000000000
(1749194601.246617) vcan_motor_drv 226#3112000000000000
(1749194601.250616) vcan_motor_drv 226#3112000000000000
(1749194601.254617) vcan_motor_drv 226#3112000000000000
(1749194601.258618) vcan_motor_drv 226#3112000000000000
(1749194601.262630) vcan_motor_drv 226#3112000000000000
(1749194601.266621) vcan_motor_drv 226#3112000000000000
(1749194601.270619) vcan_motor_drv 226#3112000000000000
(1749194601.274620) vcan_motor_drv 226#3112000000000000
(1749194601.278631) vcan_motor_drv 226#3112000000000000
(1749194601.282630) vcan_motor_drv 226#3112000000000000
(1749194601.286651) vcan_motor_drv 226#3112000000000000
(1749194601.290617) vcan_motor_drv 226#3112000000000000
(1749194601.294627) vcan_motor_drv 226#3112000000000000
(1749194601.298621) vcan_motor_drv 226#3112000000000000
(1749194601.302612) vcan_motor_drv 226#3112000000000000
(1749194601.306612) vcan_motor_drv 226#3112000000000000
(1749194601.310640) vcan_motor_drv 226#3112000000000000
(1749194601.314624) vcan_motor_drv 226#3112000000000000
(1749194601.318616) vcan_motor_drv 226#3112000000000000
(1749194601.322653) vcan_motor_drv 226#3112000000000000
(1749194601.326641) vcan_motor_drv 226#3112000000000000
(1749194601.330630) vcan_motor_drv 226#3112000000000000
(1749194601.334617) vcan_motor_drv 226#3112000000000000
(1749194601.338612) vcan_motor_drv 226#3112000000000000
(1749194601.342614) vcan_motor_drv 226#3112000000000000
(1749194601.346624) vcan_motor_drv 226#3112000000000000
(1749194601.350617) vcan_motor_drv 226#3112000000000000
(1749194601.354618) vcan_motor_drv 226#3112000000000000
(1749194601.358647) vcan_motor_drv 226#3112000000000000
(1749194601.362625) vcan_motor_drv 226#3112000000000000
(1749194601.366618) vcan_motor_drv 226#3112000000000000
(1749194601.370614) vcan_motor_drv 226#3112000000000000
(1749194601.374619) vcan_motor_drv 226#3112000000000000
(1749194601.378617) vcan_motor_drv 226#3112000000000000
(1749194601.382617) vcan_motor_drv 226#3112000000000000
(1749194601.386615) vcan_motor_drv 226#3112000000000000
(1749194601.390622) vcan_motor_drv 226#3112000000000000
(1749194601.394637) vcan_motor_drv 226#3112000000000000
(1749194601.398634) vcan_motor_drv 226#3112000000000000
(1749194601.402629) vcan_motor_drv 226#3112000000000000
(1749194601.406616) vcan_motor_drv 226#3112000000000000
(1749194601.410625) vcan_motor_drv 226#3112000000000000
(1749194601.414626) vcan_motor_drv 226#3112000000000000
(1749194601.418628) vcan_motor_drv 226#3112000000000000
(1749194601.422623) vcan_motor_drv 226#3112000000000000
(1749194601.426632) vcan_motor_drv 226#3112000000000000
(1749194601.430631) vcan_motor_drv 226#3112000000000000
(1749194601.434625) vcan_motor_drv 226#3112000000000000
(1749194601.438623) vcan_motor_drv 226#3112000000000000
(1749194601.442629) vcan_motor_drv 226#3112000000000000
(1749194601.446633) vcan_motor_drv 226#3112000000000000
(1749194601.450616) vcan_motor_drv 226#3112000000000000
(1749194601.454612) vcan_motor_drv 226#3112000000000000
(1749194601.458617) vcan_motor_drv 226#3112000000000000
(1749194601.462632) vcan_motor_drv 226#3112000000000000
(1749194601.466617) vcan_motor_drv 226#3112000000000000
(1749194601.470618) vcan_motor_drv 226#3112000000000000
(1749194601.474616) vcan_motor_drv 226#3112000000000000
(1749194601.478618) vcan_motor_drv 226#3112000000000000
(1749194601.482616) vcan_motor_drv 226#3112000000000000
(1749194601.486614) vcan_motor_drv 226#3112000000000000
(1749194601.490619) vcan_motor_drv 226#3112000000000000
(1749194601.494615) vcan_motor_drv 226#3112000000000000
(1749194601.498614) vcan_motor_drv 226#3112000000000000
(1749194601.502636) vcan_motor_drv 226#3112000000000000
(1749194601.506626) vcan_motor_drv 226#3112000000000000
(1749194601.510619) vcan_motor_drv 226#3112000000000000
(1749194601.514617) vcan_motor_drv 226#3112000000000000
(1749194601.518646) vcan_motor_drv 226#3112000000000000
(1749194601.522663) vcan_motor_drv 226#3112000000000000
(1749194601.526650) vcan_motor_drv 226#3112000000000000
(1749194601.530663) vcan_motor_drv 226#3112000000000000
(1749194601.534664) vcan_motor_drv 226#3112000000000000
(1749194601.538664) vcan_motor_drv 226#3112000000000000
(1749194601.542652) vcan_motor_drv 226#3112000000000000
(1749194601.546635) vcan_motor_drv 226#3112000000000000
(1749194601.550644) vcan_motor_drv 226#3112000000000000
(1749194601.554683) vcan_motor_drv 226#3112000000000000
(1749194601.558659) vcan_motor_drv 226#3112000000000000
(1749194601.562638) vcan_motor_drv 226#3112000000000000
(1749194601.566658) vcan_motor_drv 226#3112000000000000
(1749194601.570651) vcan_motor_drv 226#3112000000000000
(1749194601.574635) vcan_motor_drv 226#3112000000000000
(1749194601.578634) vcan_motor_drv 226#3112000000000000
(1749194601.582617) vcan_motor_drv 226#3112000000000000
(1749194601.586634) vcan_motor_drv 226#3112000000000000
(1749194601.590642) vcan_motor_drv 226#3112000000000000
(1749194601.594614) vcan_motor_drv 226#3112000000000000
(1749194601.598612) vcan_motor_drv 226#3112000000000000
(1749194601.602611) vcan_motor_drv 226#3112000000000000
(1749194601.606620) vcan_motor_drv 226#3112000000000000
(1749194601.610611) vcan_motor_drv 226#3112000000000000
(1749194601.614618) vcan_motor_drv 226#3112000000000000
(1749194601.618631) vcan_motor_drv 226#3112000000000000
(1749194601.622635) vcan_motor_drv 226#3112000000000000
(1749194601.626626) vcan_motor_drv 226#3112000000000000
(1749194601.630624) vcan_motor_drv 226#3112000000000000
(1749194601.634615) vcan_motor_drv 226#3112000000000000
(1749194601.638628) vcan_motor_drv 226#3112000000000000
(1749194601.642624) vcan_motor_drv 226#3112000000000000
(1749194601.646624) vcan_motor_drv 226#3112000000000000
(1749194601.650622) vcan_motor_drv 226#3112000000000000
(1749194601.654622) vcan_motor_drv 226#3112000000000000
(1749194601.658624) vcan_motor_drv 226#3112000000000000
(1749194601.662638) vcan_motor_drv 226#3112000000000000
(1749194601.666612) vcan_motor_drv 226#3112000000000000
(1749194601.670630) vcan_motor_drv 226#3112000000000000
(1749194601.674618) vcan_motor_drv 226#3112000000000000
(1749194601.678619) vcan_motor_drv 226#3112000000000000
(1749194601.682617) vcan_motor_drv 226#3112000000000000
(1749194601.686615) vcan_motor_drv 226#3112000000000000
(1749194601.690615) vcan_motor_drv 226#3112000000000000
(1749194601.694617) vcan_motor_drv 226#3112000000000000
(1749194601.698615) vcan_motor_drv 226#3112000000000000
(1749194601.702664) vcan_motor_drv 226#3112000000000000
(1749194601.706663) vcan_motor_drv 226#3112000000000000
(1749194601.710656) vcan_motor_drv 226#3112000000000000
(1749194601.714664) vcan_motor_drv 226#3112000000000000
(1749194601.718652) vcan_motor_drv 226#3112000000000000
(1749194601.722619) vcan_motor_drv 226#3112000000000000
(1749194601.726630) vcan_motor_drv 226#3112000000000000
(1749194601.730628) vcan_motor_drv 226#3112000000000000
(1749194601.734617) vcan_motor_drv 226#3112000000000000
(1749194601.738615) vcan_motor_drv 226#3112000000000000
(1749194601.742627) vcan_motor_drv 226#3112000000000000
(1749194601.746616) vcan_motor_drv 226#3112000000000000
(1749194601.750621) vcan_motor_drv 226#3112000000000000
(1749194601.754617) vcan_motor_drv 226#3112000000000000
(1749194601.758629) vcan_motor_drv 226#3112000000000000
(1749194601.762659) vcan_motor_drv 226#3112000000000000
(1749194601.766689) vcan_motor_drv 226#3112000000000000
(1749194601.770664) vcan_motor_drv 226#3112000000000000
(1749194601.774658) vcan_motor_drv 226#3112000000000000
(1749194601.778657) vcan_motor_drv 226#3112000000000000
(1749194601.782710) vcan_motor_drv 226#3112000000000000
(1749194601.786657) vcan_motor_drv 226#3112000000000000
(1749194601.790660) vcan_motor_drv 226#3112000000000000
(1749194601.794662) vcan_motor_drv 226#3112000000000000
(1749194601.798658) vcan_motor_drv 226#3112000000000000
(1749194601.802662) vcan_motor_drv 226#3112000000000000
(1749194601.806671) vcan_motor_drv 226#3112000000000000
(1749194601.810657) vcan_motor_drv 226#3112000000000000
(1749194601.814644) vcan_motor_drv 226#3112000000000000
(1749194601.818697) vcan_motor_drv 226#3112000000000000
(1749194601.822686) vcan_motor_drv 226#3112000000000000
(1749194601.826664) vcan_motor_drv 226#3112000000000000
(1749194601.830621) vcan_motor_drv 226#3112000000000000
(1749194601.834630) vcan_motor_drv 226#3112000000000000
(1749194601.838617) vcan_motor_drv 226#3112000000000000
(1749194601.842621) vcan_motor_drv 226#3112000000000000
(1749194601.846626) vcan_motor_drv 226#3112000000000000
(1749194601.850624) vcan_motor_drv 226#3112000000000000
(1749194601.854615) vcan_motor_drv 226#3112000000000000
(1749194601.858621) vcan_motor_drv 226#3112000000000000
(1749194601.862614) vcan_motor_drv 226#3112000000000000
(1749194601.866628) vcan_motor_drv 226#3112000000000000
(1749194601.870619) vcan_motor_drv 226#3112000000000000
(1749194601.874617) vcan_motor_drv 226#3112000000000000
(1749194601.878633) vcan_motor_drv 226#3112000000000000
(1749194601.882629) vcan_motor_drv 226#3112000000000000
(1749194601.886619) vcan_motor_drv 226#3112000000000000
(1749194601.890615) vcan_motor_drv 226#3112000000000000
(1749194601.894621) vcan_motor_drv 226#3112000000000000
(1749194601.898614) vcan_motor_drv 226#3112000000000000
(1749194601.902610) vcan_motor_drv 226#3112000000000000
(1749194601.906610) vcan_motor_drv 226#3112000000000000
(1749194601.910614) vcan_motor_drv 226#3112000000000000
(1749194601.914614) vcan_motor_drv 226#3112000000000000
(1749194601.918612) vcan_motor_drv 226#3112000000000000
(1749194601.922610) vcan_motor_drv 226#3112000000000000
(1749194601.926618) vcan_motor_drv 226#3112000000000000
(1749194601.930612) vcan_motor_drv 226#3112000000000000
(1749194601.934611) vcan_motor_drv 226#3112000000000000
(1749194601.938611) vcan_motor_drv 226#3112000000000000
(1749194601.942614) vcan_motor_drv 226#3112000000000000
(1749194601.946611) vcan_motor_drv 226#3112000000000000
(1749194601.950619) vcan_motor_drv 226#3112000000000000
(1749194601.954610) vcan_motor_drv 226#3112000000000000
(1749194601.958613) vcan_motor_drv 226#3112000000000000
(1749194601.962611) vcan_motor_drv 226#3112000000000000
(1749194601.966608) vcan_motor_drv 226#3112000000000000
(1749194601.970609) vcan_motor_drv 226#3112000000000000
(1749194601.974608) vcan_motor_drv 226#3112000000000000
(1749194601.978617) vcan_motor_drv 226#3112000000000000
(1749194601.982617) vcan_motor_drv 226#3112000000000000
(1749194601.986612) vcan_motor_drv 226#3112000000000000
(1749194601.990613) vcan_motor_drv 226#3112000000000000
(1749194601.994629) vcan_motor_drv 226#3112000000000000
(1749194601.998613) vcan_motor_drv 226#3112000000000000
(1749194602.002611) vcan_motor_drv 226#3112000000000000
(1749194602.006610) vcan_motor_drv 226#3112000000000000
(1749194602.010619) vcan_motor_drv 226#3112000000000000
(1749194602.014619) vcan_motor_drv 226#3112000000000000
(1749194602.018612) vcan_motor_drv 226#3112000000000000
(1749194602.022611) vcan_motor_drv 226#3112000000000000
(1749194602.026615) vcan_motor_drv 226#3112000000000000
(1749194602.030621) vcan_motor_drv 226#3112000000000000
(1749194602.034622) vcan_motor_drv 226#3112000000000000
(1749194602.038620) vcan_motor_drv 226#3112000000000000
(1749194602.042626) vcan_motor_drv 226#3112000000000000
(1749194602.046622) vcan_motor_drv 226#3112000000000000
(1749194602.050621) vcan_motor_drv 226#3112000000000000
(1749194602.054619) vcan_motor_drv 226#3112000000000000
(1749194602.058624) vcan_motor_drv 226#3112000000000000
(1749194602.062619) vcan_motor_drv 226#3112000000000000
(1749194602.066619) vcan_motor_drv 226#3112000000000000
