(1747656171.763206) can0 726#00
(1747656171.863070) can0 726#7F
(1747656171.963006) can0 726#7F
(1747656172.062982) can0 726#7F
(1747656172.162854) can0 726#7F
(1747656172.262767) can0 726#7F
(1747656172.362751) can0 726#7F
(1747656172.462672) can0 726#7F
(1747656172.562568) can0 726#7F
(1747656172.662481) can0 726#7F
(1747656172.762465) can0 726#7F
(1747656172.862362) can0 726#7F
(1747656172.962282) can0 726#7F
(1747656173.062251) can0 726#7F
(1747656173.162172) can0 726#7F
(1747656173.282626) can0 227#00007017D007D007
(1747656173.283618) can0 327#0000000000000000
(1747656173.284553) can0 1A6#0600F4FFCA135100
(1747656173.285520) can0 2A6#00000000DD007700
(1747656173.322518) can0 227#02377017D007D007
(1747656173.323509) can0 327#0000000000000000
(1747656173.324447) can0 1A6#0600F4FFCA135100
(1747656173.325411) can0 2A6#FEFF0000DE007900
(1747656173.362553) can0 227#02377017D007D007
(1747656173.363547) can0 327#0000000000000000
(1747656173.364479) can0 1A6#0500F4FFCA135100
(1747656173.365447) can0 2A6#FAFF0000DE007A00
(1747656173.402507) can0 227#02377017D007D007
(1747656173.403498) can0 327#0000000000000000
(1747656173.404433) can0 1A6#0500F4FFCA135100
(1747656173.405384) can0 2A6#F6FF0000DE007B00
(1747656173.442443) can0 227#02377017D007D007
(1747656173.443431) can0 327#0000000000000000
(1747656173.444373) can0 1A6#0400F4FFCA135100
(1747656173.445324) can0 2A6#F5FF0000DE007E00
(1747656173.482393) can0 227#02377017D007D007
(1747656173.483385) can0 327#0000000000000000
(1747656173.484320) can0 1A6#0500F4FFCA135100
(1747656173.485263) can0 2A6#F4FF0000DD007F00
(1747656173.522428) can0 227#02377017D007D007
(1747656173.523419) can0 327#0000000000000000
(1747656173.524356) can0 1A6#0500F4FFCA135100
(1747656173.525306) can0 2A6#F5FF0000DE008000
(1747656173.562367) can0 227#02377017D007D007
(1747656173.563359) can0 327#0000000000000000
(1747656173.564294) can0 1A6#0500F4FFCA135100
(1747656173.565237) can0 2A6#F6FF0000DE008100
(1747656173.602314) can0 227#02377017D007D007
(1747656173.603305) can0 327#0000000000000000
(1747656173.604248) can0 1A6#0400F4FFCA135100
(1747656173.605199) can0 2A6#F6FF0000DE008300
(1747656173.642333) can0 227#02377017D007D007
(1747656173.643324) can0 327#0000000000000000
(1747656173.644263) can0 1A6#0500F4FFCA135100
(1747656173.645202) can0 2A6#F6FF0000DE008400
(1747656173.682296) can0 227#02377017D007D007
(1747656173.683287) can0 327#0000000000000000
(1747656173.684222) can0 1A6#0600F4FFCA135100
(1747656173.685157) can0 2A6#F6FF0000DE008500
(1747656173.722227) can0 227#02377017D007D007
(1747656173.723218) can0 327#0000000000000000
(1747656173.724153) can0 1A6#0500F4FFCA135100
(1747656173.725088) can0 2A6#F6FF0000DD008600
(1747656173.762286) can0 227#00007017D007D007
(1747656173.763277) can0 327#0000000000000000
(1747656173.764212) can0 1A6#0500F4FFCA135100
(1747656173.765155) can0 2A6#F5FF0000DD008800
(1747656173.802249) can0 227#00007017D007D007
(1747656173.803240) can0 327#0000000000000000
(1747656173.804183) can0 1A6#0400F4FFCA135100
(1747656173.805118) can0 2A6#F4FF0000DE008900
(1747656173.842174) can0 227#00007017D007D007
(1747656173.843163) can0 327#0000000000000000
(1747656173.844098) can0 1A6#0300F4FFCA135100
(1747656173.845041) can0 2A6#F4FF0000DE008A00
(1747656173.882199) can0 227#00007017D007D007
(1747656173.883190) can0 327#0000000000000000
(1747656173.884125) can0 1A6#0500F4FFCA135100
(1747656173.885076) can0 2A6#F4FF0000DD008A00
(1747656173.922178) can0 227#00007017D007D007
(1747656173.923169) can0 327#0000000000000000
(1747656173.924104) can0 1A6#0300F4FFCA135100
(1747656173.925055) can0 2A6#F5FF0000DE008C00
(1747656173.962093) can0 227#00007017D007D007
(1747656173.963084) can0 327#0000000000000000
(1747656173.964019) can0 1A6#0300F4FFCA135100
(1747656173.964962) can0 2A6#F4FF0000DD008D00
(1747656174.002112) can0 227#00007017D007D007
(1747656174.003103) can0 327#0000000000000000
(1747656174.004038) can0 1A6#0300F4FFCA135100
(1747656174.004983) can0 2A6#F5FF0000DD008D00
(1747656174.042090) can0 227#00007017D007D007
(1747656174.043085) can0 327#0000000000000000
(1747656174.044017) can0 1A6#0300F4FFCA135100
(1747656174.044976) can0 2A6#F6FF0000DE008E00
(1747656174.082014) can0 227#00007017D007D007
(1747656174.083005) can0 327#0000000000000000
(1747656174.083932) can0 1A6#0200F4FFCA135100
(1747656174.084887) can0 2A6#F7FF0000DE008F00
(1747656174.121977) can0 227#00007017D007D007
(1747656174.122968) can0 327#0000000000000000
(1747656174.123895) can0 1A6#0200F4FFCA135100
(1747656174.124854) can0 2A6#F9FF0000DD009000
(1747656174.162004) can0 227#00007017D007D007
(1747656174.162995) can0 327#0000000000000000
(1747656174.163922) can0 1A6#0200F4FFCA135100
(1747656174.164865) can0 2A6#FAFF0000DE009100
(1747656174.201951) can0 227#00007017D007D007
(1747656174.202942) can0 327#0000000000000000
(1747656174.203869) can0 1A6#0200F4FFCA135100
(1747656174.204812) can0 2A6#FAFF0000DE009100
(1747656174.241898) can0 227#00007017D007D007
(1747656174.242889) can0 327#0000000000000000
(1747656174.243816) can0 1A6#0200F4FFCA135100
(1747656174.244768) can0 2A6#FBFF0000DE009200
(1747656174.281917) can0 227#00007017D007D007
(1747656174.282908) can0 327#0000000000000000
(1747656174.283836) can0 1A6#0200F4FFCA135100
(1747656174.284787) can0 2A6#FCFF0000DE009300
(1747656174.321872) can0 227#00007017D007D007
(1747656174.322863) can0 327#0000000000000000
(1747656174.323807) can0 1A6#0400F4FFCA135100
(1747656174.324758) can0 2A6#FCFF0000DE009300
(1747656174.361811) can0 227#00007017D007D007
(1747656174.362803) can0 327#0000000000000000
(1747656174.363738) can0 1A6#0300F4FFCA135100
(1747656174.364697) can0 2A6#FFFF0000DE009400
(1747656174.401830) can0 227#00007017D007D007
(1747656174.402821) can0 327#0000000000000000
(1747656174.403764) can0 1A6#0400F4FFCA135100
(1747656174.404747) can0 2A6#00000000DE009500
(1747656174.441793) can0 227#00007017D007D007
(1747656174.442784) can0 327#0000000000000000
(1747656174.443719) can0 1A6#0300F4FFCA135100
(1747656174.444678) can0 2A6#00000000DD009500
(1747656174.481724) can0 227#00007017D007D007
(1747656174.482715) can0 327#0000000000000000
(1747656174.483650) can0 1A6#0300F4FFCA135100
(1747656174.484618) can0 2A6#02000000DE009600
(1747656174.521743) can0 227#00007017D007D007
(1747656174.522734) can0 327#0000000000000000
(1747656174.523670) can0 1A6#0300F4FFCA135100
(1747656174.524629) can0 2A6#0C000000DE009600
(1747656174.561722) can0 227#00007017D007D007
(1747656174.562714) can0 327#0000000000000000
(1747656174.563641) can0 1A6#0200F4FFCA135100
(1747656174.564592) can0 2A6#12000000DE009700
(1747656174.601637) can0 227#00007017D007D007
(1747656174.602628) can0 327#0000000000000000
(1747656174.603572) can0 1A6#0400F4FFCA135100
(1747656174.604539) can0 2A6#14000000DE009700
(1747656174.641672) can0 227#00007017D007D007
(1747656174.642664) can0 327#0000000000000000
(1747656174.643599) can0 1A6#0300F4FFCA135100
(1747656174.644550) can0 2A6#13000100DE009800
(1747656174.681636) can0 227#00007017D007D007
(1747656174.682627) can0 327#0000000000000000
(1747656174.683554) can0 1A6#0200F4FFCA135100
(1747656174.684513) can0 2A6#12000100DE009800
(1747656174.721567) can0 227#00007017D007D007
(1747656174.722558) can0 327#0000000000000000
(1747656174.723485) can0 1A6#0200F4FFCA135100
(1747656174.724428) can0 2A6#11000000DE009900
(1747656174.761525) can0 227#00007017D007D007
(1747656174.762513) can0 327#0000000000000000
(1747656174.763443) can0 1A6#0200F4FFCA135100
(1747656174.764399) can0 2A6#10000000DE009900
(1747656174.801549) can0 227#00007017D007D007
(1747656174.802540) can0 327#0000000000000000
(1747656174.803475) can0 1A6#0100F4FFCA135100
(1747656174.804427) can0 2A6#0E000000DE009A00
(1747656174.841488) can0 227#00007017D007D007
(1747656174.842479) can0 327#0000000000000000
(1747656174.843414) can0 1A6#0100F4FFCA135100
(1747656174.844373) can0 2A6#0C000000DD009A00
(1747656174.881443) can0 227#00007017D007D007
(1747656174.882434) can0 327#0000000000000000
(1747656174.883369) can0 1A6#0100F4FFCA135100
(1747656174.884331) can0 2A6#0B000000DE009A00
(1747656174.921465) can0 227#00007017D007D007
(1747656174.922453) can0 327#0000000000000000
(1747656174.923388) can0 1A6#0100F4FFCA135100
(1747656174.924347) can0 2A6#09000000DE009B00
(1747656174.961425) can0 227#00007017D007D007
(1747656174.962416) can0 327#0000000000000000
(1747656174.963351) can0 1A6#0100F4FFCA135100
(1747656174.964294) can0 2A6#07000000DE009B00
(1747656175.001356) can0 227#00007017D007D007
(1747656175.002347) can0 327#0000000000000000
(1747656175.003282) can0 1A6#0100F4FFCA135100
(1747656175.004225) can0 2A6#05000000DE009B00
(1747656175.041383) can0 227#00007017D007D007
(1747656175.042374) can0 327#0000000000000000
(1747656175.043309) can0 1A6#0100F4FFCA135100
(1747656175.044260) can0 2A6#05000000DD009C00
(1747656175.081345) can0 227#00007017D007D007
(1747656175.082337) can0 327#0000000000000000
(1747656175.083272) can0 1A6#0100F4FFCA135100
(1747656175.084243) can0 2A6#01000000DE009C00
(1747656175.121276) can0 227#00007017D007D007
(1747656175.122268) can0 327#0000000000000000
(1747656175.123203) can0 1A6#0100F4FFCA135100
(1747656175.124154) can0 2A6#F9FF0000DD009C00
(1747656175.161295) can0 227#00007017D007D007
(1747656175.162287) can0 327#0000000000000000
(1747656175.163222) can0 1A6#0000F4FFCA135100
(1747656175.164165) can0 2A6#F6FF0000DE009D00
(1747656175.201283) can0 227#00007017D007D007
(1747656175.202274) can0 327#0000000000000000
(1747656175.203209) can0 1A6#0000F4FFCA135100
(1747656175.204160) can0 2A6#F7FF0000DE009D00
(1747656175.241190) can0 227#00007017D007D007
(1747656175.242181) can0 327#0000000000000000
(1747656175.243116) can0 1A6#0000F4FFCA135100
(1747656175.244059) can0 2A6#F6FF0000DE009D00
(1747656175.281225) can0 227#00007017D007D007
(1747656175.282216) can0 327#0000000000000000
(1747656175.283154) can0 1A6#0000F4FFCA135100
(1747656175.284094) can0 2A6#F4FF0000DD009D00
(1747656175.321196) can0 227#00007017D007D007
(1747656175.322187) can0 327#0000000000000000
(1747656175.323122) can0 1A6#0000F4FFCA135100
(1747656175.324057) can0 2A6#F0FF0000DE009E00
(1747656175.361127) can0 227#00007017D007D007
(1747656175.362118) can0 327#0000000000000000
(1747656175.363053) can0 1A6#0000F4FFCA135100
(1747656175.363988) can0 2A6#EEFF0000DE009E00
(1747656175.401074) can0 227#00007017D007D007
(1747656175.402065) can0 327#0000000000000000
(1747656175.403000) can0 1A6#0000F4FFCA135100
(1747656175.403960) can0 2A6#EFFF0000DD009E00
(1747656175.441101) can0 227#00007017D007D007
(1747656175.442092) can0 327#0000000000000000
(1747656175.443027) can0 1A6#0000F4FFCA135100
(1747656175.443970) can0 2A6#F2FF0000DD009E00
(1747656175.481040) can0 227#00007017D007D007
(1747656175.482031) can0 327#0000000000000000
(1747656175.482966) can0 1A6#0000F4FFCA135100
(1747656175.483917) can0 2A6#F4FF0000DE009F00
(1747656175.520987) can0 227#00007017D007D007
(1747656175.521978) can0 327#0000000000000000
(1747656175.522913) can0 1A6#0000F4FFCA135100
(1747656175.523880) can0 2A6#F7FF0000DE009F00
(1747656175.561013) can0 227#00007017D007D007
(1747656175.562005) can0 327#0000000000000000
(1747656175.562940) can0 1A6#0000F4FFCA135100
(1747656175.563915) can0 2A6#F8FF0000DE009F00
(1747656175.600971) can0 227#00007017D007D007
(1747656175.601960) can0 327#0000000000000000
(1747656175.602895) can0 1A6#0000F4FFCA135100
(1747656175.603854) can0 2A6#F9FF0000DD009F00
(1747656175.640907) can0 227#00007017D007D007
(1747656175.641898) can0 327#0000000000000000
(1747656175.642834) can0 1A6#0300F4FFCA135100
(1747656175.643793) can0 2A6#F9FF0000DD009F00
(1747656175.680926) can0 227#00007017D007D007
(1747656175.681918) can0 327#0000000000000000
(1747656175.682845) can0 1A6#0200F4FFCA135100
(1747656175.683788) can0 2A6#F5FF0000DE00A000
(1747656175.720889) can0 227#00007017D007D007
(1747656175.721880) can0 327#0000000000000000
(1747656175.722816) can0 1A6#0100F4FFCA135100
(1747656175.723759) can0 2A6#F5FF0000DE00A000
(1747656175.760820) can0 227#00007017D007D007
(1747656175.761811) can0 327#0000000000000000
(1747656175.762747) can0 1A6#0100F4FFCA135100
(1747656175.763698) can0 2A6#F6FF0000DE00A000
(1747656175.800847) can0 227#00007017D007D007
(1747656175.801838) can0 327#0000000000000000
(1747656175.802774) can0 1A6#0100F4FFCA135100
(1747656175.803725) can0 2A6#F8FF0000DE00A000
(1747656175.840818) can0 227#00007017D007D007
(1747656175.841809) can0 327#0000000000000000
(1747656175.842745) can0 1A6#0000F4FFCA135100
(1747656175.843720) can0 2A6#FAFF0000DD00A000
(1747656175.880741) can0 227#00007017D007D007
(1747656175.881732) can0 327#0000000000000000
(1747656175.882667) can0 1A6#0000F4FFCA135100
(1747656175.883635) can0 2A6#FBFF0000DE00A000
(1747656175.920760) can0 227#00007017D007D007
(1747656175.921751) can0 327#0000000000000000
(1747656175.922689) can0 1A6#0300F4FFCA135100
(1747656175.923646) can0 2A6#FBFF0000DD00A000
(1747656175.960740) can0 227#00007017D007D007
(1747656175.961731) can0 327#0000000000000000
(1747656175.962658) can0 1A6#0200F4FFCA135100
(1747656175.963609) can0 2A6#FCFF0000DE00A100
(1747656176.000663) can0 227#00007017D007D007
(1747656176.001654) can0 327#0000000000000000
(1747656176.002589) can0 1A6#0100F4FFCA135100
(1747656176.003540) can0 2A6#FCFF0000DE00A100
(1747656176.040626) can0 227#00007017D007D007
(1747656176.041617) can0 327#0000000000000000
(1747656176.042552) can0 1A6#0100F4FFCA135100
(1747656176.043519) can0 2A6#FBFF0000DD00A100
(1747656176.080653) can0 227#00007017D007D007
(1747656176.081644) can0 327#0000000000000000
(1747656176.082579) can0 1A6#0100F4FFCA135100
(1747656176.083522) can0 2A6#FAFF0000DE00A100
(1747656176.120591) can0 227#00007017D007D007
(1747656176.121582) can0 327#0000000000000000
(1747656176.122518) can0 1A6#0100F4FFCA135100
(1747656176.123461) can0 2A6#FCFF0000DD00A100
(1747656176.160538) can0 227#00007017D007D007
(1747656176.161529) can0 327#0000000000000000
(1747656176.162464) can0 1A6#0000F4FFCA135100
(1747656176.163416) can0 2A6#FFFF0000DE00A100
(1747656176.200557) can0 227#00007017D007D007
(1747656176.201548) can0 327#0000000000000000
(1747656176.202483) can0 1A6#0000F4FFCA135100
(1747656176.203443) can0 2A6#00000000DD00A100
(1747656176.240513) can0 227#00007017D007D007
(1747656176.241507) can0 327#0000000000000000
(1747656176.242443) can0 1A6#0000F4FFCA135100
(1747656176.243398) can0 2A6#00000000DD00A100
(1747656176.280452) can0 227#00007017D007D007
(1747656176.281443) can0 327#0000000000000000
(1747656176.282378) can0 1A6#0300F4FFCA135100
(1747656176.283354) can0 2A6#00000000DE00A200
(1747656176.320471) can0 227#00007017D007D007
(1747656176.321463) can0 327#0000000000000000
(1747656176.322389) can0 1A6#0200F4FFCA135100
(1747656176.323365) can0 2A6#00000000DE00A200
(1747656176.360443) can0 227#00007017D007D007
(1747656176.361434) can0 327#0000000000000000
(1747656176.362369) can0 1A6#0100F4FFCA135100
(1747656176.363344) can0 2A6#00000000DD00A200
(1747656176.400366) can0 227#00007017D007D007
(1747656176.401357) can0 327#0000000000000000
(1747656176.402292) can0 1A6#0100F4FFCA135100
(1747656176.403268) can0 2A6#00000000DE00A200
(1747656176.440386) can0 227#00007017D007D007
(1747656176.441377) can0 327#0000000000000000
(1747656176.442312) can0 1A6#0100F4FFCA135100
(1747656176.443287) can0 2A6#00000000DE00A200
(1747656176.480373) can0 227#00007017D007D007
(1747656176.481364) can0 327#0000000000000000
(1747656176.482300) can0 1A6#0000F4FFCA135100
(1747656176.483275) can0 2A6#00000000DE00A200
(1747656176.520289) can0 227#00007017D007D007
(1747656176.521280) can0 327#0000000000000000
(1747656176.522215) can0 1A6#0000F4FFCA135100
(1747656176.523190) can0 2A6#00000000DE00A200
(1747656176.560308) can0 227#00007017D007D007
(1747656176.561299) can0 327#0000000000000000
(1747656176.562235) can0 1A6#0000F4FFCA135100
(1747656176.563210) can0 2A6#00000000DD00A200
(1747656176.600288) can0 227#00007017D007D007
(1747656176.601279) can0 327#0000000000000000
(1747656176.602214) can0 1A6#0000F4FFCA135100
(1747656176.603165) can0 2A6#01000000DD00A200
(1747656176.640211) can0 227#00007017D007D007
(1747656176.641202) can0 327#0000000000000000
(1747656176.642137) can0 1A6#0000F4FFCA135100
(1747656176.643105) can0 2A6#04000000DE00A200
(1747656176.680175) can0 227#00007017D007D007
(1747656176.681166) can0 327#0000000000000000
(1747656176.682101) can0 1A6#0000F4FFCA135100
(1747656176.683052) can0 2A6#06000000DD00A200
(1747656176.720202) can0 227#00007017D007D007
(1747656176.721193) can0 327#0000000000000000
(1747656176.722129) can0 1A6#0000F4FFCA135100
(1747656176.723080) can0 2A6#06000000DD00A200
(1747656176.760142) can0 227#00007017D007D007
(1747656176.761136) can0 327#0000000000000000
(1747656176.762068) can0 1A6#0000F4FFCA135100
(1747656176.763019) can0 2A6#06000000DE00A200
(1747656176.800089) can0 227#00007017D007D007
(1747656176.801080) can0 327#0000000000000000
(1747656176.802015) can0 1A6#0000F4FFCA135100
(1747656176.802967) can0 2A6#07000000DE00A300
(1747656176.840117) can0 227#00007017D007D007
(1747656176.841108) can0 327#0000000000000000
(1747656176.842043) can0 1A6#0000F4FFCA135100
(1747656176.842994) can0 2A6#09000000DD00A300
(1747656176.880072) can0 227#00007017D007D007
(1747656176.881063) can0 327#0000000000000000
(1747656176.881998) can0 1A6#0000F4FFCA135100
(1747656176.882943) can0 2A6#09000000DE00A300
(1747656176.920004) can0 227#00007017D007D007
(1747656176.920995) can0 327#0000000000000000
(1747656176.921930) can0 1A6#0000F4FFCA135100
(1747656176.922881) can0 2A6#09000000DD00A300
(1747656176.960023) can0 227#00007017D007D007
(1747656176.961014) can0 327#0000000000000000
(1747656176.961957) can0 1A6#0000F3FFCA135100
(1747656176.962916) can0 2A6#05000000DE00A300
(1747656176.999994) can0 227#00007017D007D007
(1747656177.000986) can0 327#0000000000000000
(1747656177.001921) can0 1A6#0000F4FFCA135100
(1747656177.002888) can0 2A6#01000000DE00A300
(1747656177.039918) can0 227#00007017D007D007
(1747656177.040909) can0 327#0000000000000000
(1747656177.041852) can0 1A6#0000F3FFCA135100
(1747656177.042811) can0 2A6#00000000DE00A300
(1747656177.079945) can0 227#00007017D007D007
(1747656177.080936) can0 327#0000000000000000
(1747656177.081871) can0 1A6#0000F4FFCA135100
(1747656177.082830) can0 2A6#00000000DE00A300
(1747656177.119924) can0 227#00007017D007D007
(1747656177.120915) can0 327#0000000000000000
(1747656177.121858) can0 1A6#0000F3FFCA135100
(1747656177.122825) can0 2A6#01000000DE00A300
(1747656177.159839) can0 227#00007017D007D007
(1747656177.160830) can0 327#0000000000000000
(1747656177.161765) can0 1A6#0000F4FFCA135100
(1747656177.162716) can0 2A6#04000000DE00A300
(1747656177.199866) can0 227#00007017D007D007
(1747656177.200860) can0 327#0000000000000000
(1747656177.201793) can0 1A6#0000F4FFCA135100
(1747656177.202744) can0 2A6#04000000DE00A300
(1747656177.239830) can0 227#00007017D007D007
(1747656177.240821) can0 327#0000000000000000
(1747656177.241764) can0 1A6#0000F3FFCA135100
(1747656177.242731) can0 2A6#01000000DE00A300
(1747656177.279765) can0 227#00007017D007D007
(1747656177.280753) can0 327#0000000000000000
(1747656177.281688) can0 1A6#0000F4FFCA135100
(1747656177.282647) can0 2A6#00000000DD00A300
(1747656177.319716) can0 227#00007017D007D007
(1747656177.320707) can0 327#0000000000000000
(1747656177.321650) can0 1A6#0000F3FFCA135100
(1747656177.322610) can0 2A6#00000000DE00A300
(1747656177.359744) can0 227#00007017D007D007
(1747656177.360735) can0 327#0000000000000000
(1747656177.361678) can0 1A6#0000F3FFCA135100
(1747656177.362637) can0 2A6#00000000DE00A300
(1747656177.399691) can0 227#00007017D007D007
(1747656177.400682) can0 327#0000000000000000
(1747656177.401625) can0 1A6#0000F3FFCA135100
(1747656177.402584) can0 2A6#00000000DE00A300
(1747656177.439638) can0 227#00007017D007D007
(1747656177.440630) can0 327#0000000000000000
(1747656177.441565) can0 1A6#0000F4FFCA135100
(1747656177.442524) can0 2A6#00000000DD00A300
(1747656177.479665) can0 227#00007017D007D007
(1747656177.480656) can0 327#0000000000000000
(1747656177.481600) can0 1A6#0000F3FFCA135100
(1747656177.482559) can0 2A6#00000000DE00A300
(1747656177.519620) can0 227#00007017D007D007
(1747656177.520611) can0 327#0000000000000000
(1747656177.521554) can0 1A6#0000F3FFCA135100
(1747656177.522514) can0 2A6#00000000DE00A300
(1747656177.559552) can0 227#00007017D007D007
(1747656177.560543) can0 327#0000000000000000
(1747656177.561486) can0 1A6#0000F3FFCA135100
(1747656177.562445) can0 2A6#00000000DD00A300
(1747656177.599583) can0 227#00007017D007D007
(1747656177.600570) can0 327#0000000000000000
(1747656177.601513) can0 1A6#0000F3FFCA135100
(1747656177.602472) can0 2A6#00000000DD00A300
(1747656177.639550) can0 227#00007017D007D007
(1747656177.640542) can0 327#0000000000000000
(1747656177.641485) can0 1A6#0000F3FFCA135100
(1747656177.642428) can0 2A6#FAFF0000DE00A300
(1747656177.679473) can0 227#00007017D007D007
(1747656177.680464) can0 327#0000000000000000
(1747656177.681407) can0 1A6#0000F3FFCA135100
(1747656177.682359) can0 2A6#F6FF0000DE00A300
(1747656177.719493) can0 227#00007017D007D007
(1747656177.720484) can0 327#0000000000000000
(1747656177.721427) can0 1A6#0000F3FFCA135100
(1747656177.722378) can0 2A6#F6FF0000DE00A300
(1747656177.759472) can0 227#00007017D007D007
(1747656177.760463) can0 327#0000000000000000
(1747656177.761406) can0 1A6#0000F3FFCA135100
(1747656177.762349) can0 2A6#F2FF0000DE00A300
(1747656177.799387) can0 227#00007017D007D007
(1747656177.800379) can0 327#0000000000000000
(1747656177.801322) can0 1A6#0000F3FFCA135100
(1747656177.802265) can0 2A6#EEFF0000DE00A400
(1747656177.839414) can0 227#00007017D007D007
(1747656177.840405) can0 327#0000000000000000
(1747656177.841349) can0 1A6#0000F3FFCA135100
(1747656177.842300) can0 2A6#EFFF0000DD00A400
(1747656177.879386) can0 227#00007017D007D007
(1747656177.880377) can0 327#0000000000000000
(1747656177.881320) can0 1A6#0000F3FFCA135100
(1747656177.882271) can0 2A6#F0FF0000DD00A400
(1747656177.919325) can0 227#00007017D007D007
(1747656177.920316) can0 327#0000000000000000
(1747656177.921259) can0 1A6#0000F3FFCA135100
(1747656177.922211) can0 2A6#F0FF0000DD00A400
(1747656177.959273) can0 227#00007017D007D007
(1747656177.960264) can0 327#0000000000000000
(1747656177.961207) can0 1A6#0000F3FFCA135100
(1747656177.962150) can0 2A6#F1FF0000DD00A400
(1747656177.999300) can0 227#00007017D007D007
(1747656178.000291) can0 327#0000000000000000
(1747656178.001234) can0 1A6#0000F3FFCA135100
(1747656178.002177) can0 2A6#F1FF0000DD00A400
(1747656178.039239) can0 227#00007017D007D007
(1747656178.040231) can0 327#0000000000000000
(1747656178.041174) can0 1A6#0000F3FFCA135100
(1747656178.042133) can0 2A6#F3FF0000DE00A400
(1747656178.079194) can0 227#00007017D007D007
(1747656178.080185) can0 327#0000000000000000
(1747656178.081129) can0 1A6#0000F3FFCA135100
(1747656178.082080) can0 2A6#F5FF0000DE00A400
(1747656178.119214) can0 227#00007017D007D007
(1747656178.120205) can0 327#0000000000000000
(1747656178.121148) can0 1A6#0000F3FFCA135100
(1747656178.122099) can0 2A6#F7FF0000DE00A400
(1747656178.159177) can0 227#00007017D007D007
(1747656178.160168) can0 327#0000000000000000
(1747656178.161114) can0 1A6#0000F3FFCA135100
(1747656178.162063) can0 2A6#F9FF0000DE00A400
(1747656178.199109) can0 227#00007017D007D007
(1747656178.200100) can0 327#0000000000000000
(1747656178.201043) can0 1A6#0000F3FFCA135100
(1747656178.201994) can0 2A6#FAFF0000DD00A400
(1747656178.239128) can0 227#00007017D007D007
(1747656178.240119) can0 327#0000000000000000
(1747656178.241062) can0 1A6#0000F3FFCA135100
(1747656178.242021) can0 2A6#FDFF0000DE00A400
(1747656178.279091) can0 227#00007017D007D007
(1747656178.280083) can0 327#0000000000000000
(1747656178.281026) can0 1A6#0000F3FFCA135100
(1747656178.281993) can0 2A6#FFFF0000DE00A400
(1747656178.319023) can0 227#00007017D007D007
(1747656178.320014) can0 327#0000000000000000
(1747656178.320957) can0 1A6#0000F3FFCA135100
(1747656178.321932) can0 2A6#00000000DE00A400
(1747656178.359050) can0 227#00007017D007D007
(1747656178.360041) can0 327#0000000000000000
(1747656178.360968) can0 1A6#0300F3FFCA135100
(1747656178.361927) can0 2A6#01000000DE00A400
(1747656178.399029) can0 227#00007017D007D007
(1747656178.400020) can0 327#0000000000000000
(1747656178.400955) can0 1A6#0200F3FFCA135100
(1747656178.401906) can0 2A6#07000000DD00A400
(1747656178.438936) can0 227#00007017D007D007
(1747656178.439929) can0 327#0000000000000000
(1747656178.440863) can0 1A6#0100F3FFCA135100
(1747656178.441814) can0 2A6#0B000000DE00A400
(1747656178.478963) can0 227#00007017D007D007
(1747656178.479954) can0 327#0000000000000000
(1747656178.480890) can0 1A6#0100F3FFCA135100
(1747656178.481857) can0 2A6#0A000000DE00A400
(1747656178.518935) can0 227#00007017D007D007
(1747656178.519926) can0 327#0000000000000000
(1747656178.520861) can0 1A6#0100F3FFCA135100
(1747656178.521820) can0 2A6#08000000DE00A400
(1747656178.558866) can0 227#00007017D007D007
(1747656178.559857) can0 327#0000000000000000
(1747656178.560800) can0 1A6#0000F3FFCA135100
(1747656178.561751) can0 2A6#07000000DD00A400
(1747656178.598829) can0 227#00007017D007D007
(1747656178.599821) can0 327#0000000000000000
(1747656178.600764) can0 1A6#0000F3FFCA135100
(1747656178.601731) can0 2A6#06000000DE00A400
(1747656178.638856) can0 227#00007017D007D007
(1747656178.639847) can0 327#0000000000000000
(1747656178.640791) can0 1A6#0000F3FFCA135100
(1747656178.641750) can0 2A6#08000000DD00A400
(1747656178.678804) can0 227#00007017D007D007
(1747656178.679795) can0 327#0000000000000000
(1747656178.680738) can0 1A6#0000F3FFCA135100
(1747656178.681689) can0 2A6#07000000DE00A400
(1747656178.718745) can0 227#00007017D007D007
(1747656178.719734) can0 327#0000000000000000
(1747656178.720677) can0 1A6#0000F3FFCA135100
(1747656178.721645) can0 2A6#06000000DE00A400
(1747656178.758770) can0 227#00007017D007D007
(1747656178.759762) can0 327#0000000000000000
(1747656178.760705) can0 1A6#0000F3FFCA135100
(1747656178.761672) can0 2A6#06000000DE00A400
(1747656178.798725) can0 227#00007017D007D007
(1747656178.799716) can0 327#0000000000000000
(1747656178.800659) can0 1A6#0000F3FFCA135100
(1747656178.801619) can0 2A6#05000000DE00A400
(1747656178.838665) can0 227#00007017D007D007
(1747656178.839656) can0 327#0000000000000000
(1747656178.840599) can0 1A6#0000F3FFCA135100
(1747656178.841558) can0 2A6#05000000DE00A400
(1747656178.878684) can0 227#00007017D007D007
(1747656178.879675) can0 327#0000000000000000
(1747656178.880618) can0 1A6#0000F3FFCA135100
(1747656178.881569) can0 2A6#03000000DE00A400
(1747656178.918647) can0 227#00007017D007D007
(1747656178.919638) can0 327#0000000000000000
(1747656178.920581) can0 1A6#0000F3FFCA135100
(1747656178.921540) can0 2A6#01000000DE00A400
(1747656178.958570) can0 227#00007017D007D007
(1747656178.959561) can0 327#0000000000000000
(1747656178.960504) can0 1A6#0000F3FFCA135100
(1747656178.961471) can0 2A6#00000000DD00A400
(1747656178.998597) can0 227#00007017D007D007
(1747656178.999588) can0 327#0000000000000000
(1747656179.000531) can0 1A6#0000F3FFCA135100
(1747656179.001506) can0 2A6#00000000DE00A400
(1747656179.038568) can0 227#00007017D007D007
(1747656179.039562) can0 327#0000000000000000
(1747656179.040502) can0 1A6#0000F3FFCA135100
(1747656179.041469) can0 2A6#00000000DD00A400
(1747656179.078483) can0 227#00007017D007D007
(1747656179.079474) can0 327#0000000000000000
(1747656179.080418) can0 1A6#0000F3FFCA135100
(1747656179.081385) can0 2A6#00000000DD00A400
(1747656179.118471) can0 227#00007017D007D007
(1747656179.119462) can0 327#0000000000000000
(1747656179.120405) can0 1A6#0000F3FFCA135100
(1747656179.121372) can0 2A6#00000000DD00A400
(1747656179.158482) can0 227#00007017D007D007
(1747656179.159473) can0 327#0000000000000000
(1747656179.160416) can0 1A6#0000F3FFCA135100
(1747656179.161392) can0 2A6#00000000DE00A400
(1747656179.198414) can0 227#00007017D007D007
(1747656179.199405) can0 327#0000000000000000
(1747656179.200348) can0 1A6#0000F3FFCA135100
(1747656179.201323) can0 2A6#00000000DE00A400
(1747656179.238368) can0 227#00007017D007D007
(1747656179.239359) can0 327#0000000000000000
(1747656179.240302) can0 1A6#0000F3FFCA135100
(1747656179.241274) can0 2A6#00000000DD00A400
(1747656179.278395) can0 227#00007017D007D007
(1747656179.279387) can0 327#0000000000000000
(1747656179.280330) can0 1A6#0000F3FFCA135100
(1747656179.281305) can0 2A6#00000000DE00A400
(1747656179.318343) can0 227#00007017D007D007
(1747656179.319334) can0 327#0000000000000000
(1747656179.320278) can0 1A6#0000F3FFCA135100
(1747656179.321252) can0 2A6#00000000DE00A400
(1747656179.358290) can0 227#00007017D007D007
(1747656179.359281) can0 327#0000000000000000
(1747656179.360224) can0 1A6#0000F3FFCA135100
(1747656179.361192) can0 2A6#00000000DD00A400
(1747656179.398310) can0 227#00007017D007D007
(1747656179.399301) can0 327#0000000000000000
(1747656179.400244) can0 1A6#0000F3FFCA135100
(1747656179.401219) can0 2A6#00000000DE00A400
(1747656179.438273) can0 227#00007017D007D007
(1747656179.439264) can0 327#0000000000000000
(1747656179.440207) can0 1A6#0000F3FFCA135100
(1747656179.441185) can0 2A6#00000000DE00A400
(1747656179.478204) can0 227#00007017D007D007
(1747656179.479195) can0 327#0000000000000000
(1747656179.480138) can0 1A6#0000F3FFCA135100
(1747656179.481114) can0 2A6#00000000DE00A400
(1747656179.518232) can0 227#00007017D007D007
(1747656179.519223) can0 327#0000000000000000
(1747656179.520166) can0 1A6#0000F3FFCA135100
(1747656179.521141) can0 2A6#00000000DE00A400
(1747656179.558195) can0 227#00007017D007D007
(1747656179.559186) can0 327#0000000000000000
(1747656179.560113) can0 1A6#0300F3FFCA135100
(1747656179.561080) can0 2A6#00000000DD00A400
(1747656179.598126) can0 227#00007017D007D007
(1747656179.599117) can0 327#0000000000000000
(1747656179.600044) can0 1A6#0500F3FFCA135100
(1747656179.601020) can0 2A6#00000000DE00A400
(1747656179.638146) can0 227#00007017D007D007
(1747656179.639137) can0 327#0000000000000000
(1747656179.640088) can0 1A6#0400F3FFCA135100
(1747656179.641063) can0 2A6#00000000DE00A400
(1747656179.678117) can0 227#00007017D007D007
(1747656179.679108) can0 327#0000000000000000
(1747656179.680043) can0 1A6#0200F3FFCA135100
(1747656179.681018) can0 2A6#00000000DE00A400
(1747656179.718040) can0 227#00007017D007D007
(1747656179.719031) can0 327#0000000000000000
(1747656179.719967) can0 1A6#0200F3FFCA135100
(1747656179.720934) can0 2A6#00000000DD00A400
(1747656179.758020) can0 227#00007017D007D007
(1747656179.759011) can0 327#0000000000000000
(1747656179.759946) can0 1A6#0100F3FFCA135100
(1747656179.760913) can0 2A6#00000000DD00A400
(1747656179.798039) can0 227#00007017D007D007
(1747656179.799030) can0 327#0000000000000000
(1747656179.799965) can0 1A6#0100F3FFCA135100
(1747656179.800940) can0 2A6#00000000DE00A400
(1747656179.837962) can0 227#00007017D007D007
(1747656179.838953) can0 327#0000000000000000
(1747656179.839897) can0 1A6#0000F3FFCA135100
(1747656179.840872) can0 2A6#00000000DE00A400
(1747656179.877926) can0 227#00007017D007D007
(1747656179.878917) can0 327#0000000000000000
(1747656179.879860) can0 1A6#0000F3FFCA135100
(1747656179.880827) can0 2A6#00000000DD00A400
(1747656179.917953) can0 227#00007017D007D007
(1747656179.918944) can0 327#0000000000000000
(1747656179.919887) can0 1A6#0000F3FFCA135100
(1747656179.920862) can0 2A6#00000000DE00A400
(1747656179.957892) can0 227#00007017D007D007
(1747656179.958883) can0 327#0000000000000000
(1747656179.959826) can0 1A6#0000F3FFCA135100
(1747656179.960802) can0 2A6#00000000DE00A400
(1747656179.997840) can0 227#00007017D007D007
(1747656179.998831) can0 327#0000000000000000
(1747656179.999758) can0 1A6#0300F3FFCA135100
(1747656180.000725) can0 2A6#00000000DD00A400
(1747656180.037866) can0 227#00007017D007D007
(1747656180.038857) can0 327#0000000000000000
(1747656180.039792) can0 1A6#0200F3FFCA135100
(1747656180.040767) can0 2A6#00000000DE00A400
(1747656180.077821) can0 227#00007017D007D007
(1747656180.078813) can0 327#0000000000000000
(1747656180.079748) can0 1A6#0100F3FFCA135100
(1747656180.080723) can0 2A6#00000000DE00A400
(1747656180.117761) can0 227#00007017D007D007
(1747656180.118752) can0 327#0000000000000000
(1747656180.119687) can0 1A6#0100F3FFCA135100
(1747656180.120662) can0 2A6#00000000DE00A400
(1747656180.157780) can0 227#00007017D007D007
(1747656180.158771) can0 327#0000000000000000
(1747656180.159706) can0 1A6#0100F3FFCA135100
(1747656180.160681) can0 2A6#00000000DE00A400
(1747656180.197751) can0 227#00007017D007D007
(1747656180.198742) can0 327#0000000000000000
(1747656180.199685) can0 1A6#0000F3FFCA135100
(1747656180.200652) can0 2A6#00000000DD00A400
(1747656180.237674) can0 227#00007017D007D007
(1747656180.238665) can0 327#0000000000000000
(1747656180.239608) can0 1A6#0000F3FFCA135100
(1747656180.240583) can0 2A6#00000000DE00A400
(1747656180.277701) can0 227#00007017D007D007
(1747656180.278692) can0 327#0000000000000000
(1747656180.279636) can0 1A6#0000F3FFCA135100
(1747656180.280611) can0 2A6#00000000DE00A400
(1747656180.317673) can0 227#00007017D007D007
(1747656180.318664) can0 327#0000000000000000
(1747656180.319607) can0 1A6#0000F3FFCA135100
(1747656180.320582) can0 2A6#00000000DE00A400
(1747656180.357588) can0 227#00007017D007D007
(1747656180.358579) can0 327#0000000000000000
(1747656180.359522) can0 1A6#0000F3FFCA135100
(1747656180.360489) can0 2A6#00000000DD00A400
(1747656180.397575) can0 227#00007017D007D007
(1747656180.398566) can0 327#0000000000000000
(1747656180.399509) can0 1A6#0000F3FFCA135100
(1747656180.400477) can0 2A6#00000000DD00A400
(1747656180.437587) can0 227#00007017D007D007
(1747656180.438578) can0 327#0000000000000000
(1747656180.439521) can0 1A6#0000F3FFCA135100
(1747656180.440496) can0 2A6#00000000DE00A400
(1747656180.477518) can0 227#00007017D007D007
(1747656180.478509) can0 327#0000000000000000
(1747656180.479452) can0 1A6#0000F3FFCA135100
(1747656180.480427) can0 2A6#00000000DE00A400
(1747656180.517481) can0 227#00007017D007D007
(1747656180.518472) can0 327#0000000000000000
(1747656180.519415) can0 1A6#0000F3FFCA135100
(1747656180.520390) can0 2A6#00000000DE00A400
(1747656180.557508) can0 227#00007017D007D007
(1747656180.558499) can0 327#0000000000000000
(1747656180.559447) can0 1A6#0000F3FFCA135100
(1747656180.560418) can0 2A6#00000000DE00A400
(1747656180.597454) can0 227#00007017D007D007
(1747656180.598443) can0 327#0000000000000000
(1747656180.599382) can0 1A6#0000F3FFCA135100
(1747656180.600357) can0 2A6#00000000DE00A400
(1747656180.637395) can0 227#00007017D007D007
(1747656180.638386) can0 327#0000000000000000
(1747656180.639329) can0 1A6#0000F3FFCA135100
(1747656180.640296) can0 2A6#00000000DD00A400
(1747656180.677422) can0 227#00007017D007D007
(1747656180.678413) can0 327#0000000000000000
(1747656180.679356) can0 1A6#0000F3FFCA135100
(1747656180.680324) can0 2A6#00000000DD00A400
(1747656180.717378) can0 227#00007017D007D007
(1747656180.718369) can0 327#0000000000000000
(1747656180.719312) can0 1A6#0000F3FFCA135100
(1747656180.720287) can0 2A6#00000000DE00A400
(1747656180.757309) can0 227#00007017D007D007
(1747656180.758300) can0 327#0000000000000000
(1747656180.759243) can0 1A6#0000F3FFCA135100
(1747656180.760218) can0 2A6#00000000DE00A400
(1747656180.797336) can0 227#00007017D007D007
(1747656180.798327) can0 327#0000000000000000
(1747656180.799270) can0 1A6#0000F3FFCA135100
(1747656180.800245) can0 2A6#00000000DE00A400
(1747656180.837299) can0 227#00007017D007D007
(1747656180.838290) can0 327#0000000000000000
(1747656180.839234) can0 1A6#0000F3FFCA135100
(1747656180.840209) can0 2A6#00000000DE00A400
(1747656180.877231) can0 227#00007017D007D007
(1747656180.878222) can0 327#0000000000000000
(1747656180.879165) can0 1A6#0000F3FFCA135100
(1747656180.880140) can0 2A6#00000000DE00A400
(1747656180.917250) can0 227#00007017D007D007
(1747656180.918241) can0 327#0000000000000000
(1747656180.919184) can0 1A6#0000F3FFCA135100
(1747656180.920159) can0 2A6#00000000DE00A400
(1747656180.957229) can0 227#00007017D007D007
(1747656180.958220) can0 327#0000000000000000
(1747656180.959163) can0 1A6#0000F3FFCA135100
(1747656180.960139) can0 2A6#00000000DE00A400
(1747656180.997145) can0 227#00007017D007D007
(1747656180.998136) can0 327#0000000000000000
(1747656180.999079) can0 1A6#0000F3FFCA135100
(1747656181.000054) can0 2A6#00000000DE00A400
(1747656181.037173) can0 227#00007017D007D007
(1747656181.038164) can0 327#0000000000000000
(1747656181.039107) can0 1A6#0000F3FFCA135100
(1747656181.040074) can0 2A6#00000000DD00A400
(1747656181.077144) can0 227#00007017D007D007
(1747656181.078135) can0 327#0000000000000000
(1747656181.079078) can0 1A6#0000F3FFCA135100
(1747656181.080053) can0 2A6#00000000DE00A400
(1747656181.117078) can0 227#00007017D007D007
(1747656181.118066) can0 327#0000000000000000
(1747656181.119009) can0 1A6#0000F3FFCA135100
(1747656181.119984) can0 2A6#00000000DE00A400
(1747656181.157038) can0 227#00007017D007D007
(1747656181.158029) can0 327#0000000000000000
(1747656181.158973) can0 1A6#0000F3FFCA135100
(1747656181.159924) can0 2A6#05000000DD00A400
(1747656181.197066) can0 227#00007017D007D007
(1747656181.198057) can0 327#0000000000000000
(1747656181.199000) can0 1A6#0000F3FFCA135100
(1747656181.199951) can0 2A6#07000000DE00A400
(1747656181.237005) can0 227#00007017D007D007
(1747656181.237997) can0 327#0000000000000000
(1747656181.238940) can0 1A6#0000F3FFCA135100
(1747656181.239899) can0 2A6#08000000DD00A400
(1747656181.276953) can0 227#00007017D007D007
(1747656181.277944) can0 327#0000000000000000
(1747656181.278887) can0 1A6#0000F3FFCA135100
(1747656181.279846) can0 2A6#08000000DD00A400
(1747656181.316981) can0 227#00007017D007D007
(1747656181.317971) can0 327#0000000000000000
(1747656181.318914) can0 1A6#0000F3FFCA135100
(1747656181.319866) can0 2A6#07000000DD00A400
(1747656181.356936) can0 227#00007017D007D007
(1747656181.357927) can0 327#0000000000000000
(1747656181.358870) can0 1A6#0000F3FFCA135100
(1747656181.359837) can0 2A6#06000000DE00A400
(1747656181.396875) can0 227#00007017D007D007
(1747656181.397866) can0 327#0000000000000000
(1747656181.398809) can0 1A6#0000F3FFCA135100
(1747656181.399768) can0 2A6#05000000DE00A400
(1747656181.436896) can0 227#00007017D007D007
(1747656181.437885) can0 327#0000000000000000
(1747656181.438828) can0 1A6#0000F3FFCA135100
(1747656181.439796) can0 2A6#04000000DD00A400
(1747656181.476857) can0 227#00007017D007D007
(1747656181.477848) can0 327#0000000000000000
(1747656181.478792) can0 1A6#0000F3FFCA135100
(1747656181.479759) can0 2A6#04000000DD00A400
(1747656181.516781) can0 227#00007017D007D007
(1747656181.517772) can0 327#0000000000000000
(1747656181.518715) can0 1A6#0000F3FFCA135100
(1747656181.519674) can0 2A6#01000000DE00A400
(1747656181.556807) can0 227#00007017D007D007
(1747656181.557802) can0 327#0000000000000000
(1747656181.558741) can0 1A6#0000F3FFCA135100
(1747656181.559717) can0 2A6#00000000DE00A400
(1747656181.596779) can0 227#00007017D007D007
(1747656181.597770) can0 327#0000000000000000
(1747656181.598713) can0 1A6#0000F3FFCA135100
(1747656181.599680) can0 2A6#00000000DD00A400
(1747656181.636707) can0 227#00007017D007D007
(1747656181.637693) can0 327#0000000000000000
(1747656181.638637) can0 1A6#0000F3FFCA135100
(1747656181.639588) can0 2A6#FEFF0000DE00A400
(1747656181.676730) can0 227#00007017D007D007
(1747656181.677721) can0 327#0000000000000000
(1747656181.678664) can0 1A6#0000F3FFCA135100
(1747656181.679615) can0 2A6#F8FF0000DD00A400
(1747656181.716693) can0 227#00007017D007D007
(1747656181.717684) can0 327#0000000000000000
(1747656181.718627) can0 1A6#0000F3FFCA135100
(1747656181.719578) can0 2A6#F5FF0000DE00A400
(1747656181.756624) can0 227#00007017D007D007
(1747656181.757615) can0 327#0000000000000000
(1747656181.758558) can0 1A6#0000F3FFCA135100
(1747656181.759501) can0 2A6#F6FF0000DE00A400
(1747656181.796587) can0 227#00007017D007D007
(1747656181.797578) can0 327#0000000000000000
(1747656181.798521) can0 1A6#0000F3FFCA135100
(1747656181.799465) can0 2A6#F6FF0000DE00A400
(1747656181.836618) can0 227#00007017D007D007
(1747656181.837606) can0 327#0000000000000000
(1747656181.838549) can0 1A6#0000F3FFCA135100
(1747656181.839500) can0 2A6#F5FF0000DE00A400
(1747656181.876554) can0 227#00007017D007D007
(1747656181.877545) can0 327#0000000000000000
(1747656181.878488) can0 1A6#0000F3FFCA135100
(1747656181.879443) can0 2A6#F7FF0000DE00A400
(1747656181.916501) can0 227#00007017D007D007
(1747656181.917493) can0 327#0000000000000000
(1747656181.918443) can0 1A6#0000F3FFCA135100
(1747656181.919387) can0 2A6#F7FF0000DE00A400
(1747656181.956529) can0 227#00007017D007D007
(1747656181.957520) can0 327#0000000000000000
(1747656181.958463) can0 1A6#0000F3FFCA135100
(1747656181.959414) can0 2A6#F8FF0000DE00A400
(1747656181.996484) can0 227#00007017D007D007
(1747656181.997475) can0 327#0000000000000000
(1747656181.998418) can0 1A6#0000F3FFCA135100
(1747656181.999369) can0 2A6#F9FF0000DE00A400
(1747656182.036423) can0 227#00007017D007D007
(1747656182.037414) can0 327#0000000000000000
(1747656182.038357) can0 1A6#0000F3FFCA135100
(1747656182.039309) can0 2A6#FAFF0000DE00A400
(1747656182.076445) can0 227#00007017D007D007
(1747656182.077437) can0 327#0000000000000000
(1747656182.078377) can0 1A6#0000F3FFCA135100
(1747656182.079336) can0 2A6#FDFF0000DE00A400
(1747656182.116406) can0 227#00007017D007D007
(1747656182.117397) can0 327#0000000000000000
(1747656182.118341) can0 1A6#0000F3FFCA135100
(1747656182.119308) can0 2A6#FFFF0000DE00A400
(1747656182.156330) can0 227#00007017D007D007
(1747656182.157321) can0 327#0000000000000000
(1747656182.158264) can0 1A6#0000F3FFCA135100
(1747656182.159239) can0 2A6#00000000DE00A400
(1747656182.196357) can0 227#00007017D007D007
(1747656182.197348) can0 327#0000000000000000
(1747656182.198292) can0 1A6#0000F3FFCA135100
(1747656182.199267) can0 2A6#00000000DE00A400
(1747656182.236329) can0 227#00007017D007D007
(1747656182.237320) can0 327#0000000000000000
(1747656182.238263) can0 1A6#0000F3FFCA135100
(1747656182.239230) can0 2A6#00000000DD00A400
(1747656182.276252) can0 227#00007017D007D007
(1747656182.277243) can0 327#0000000000000000
(1747656182.278186) can0 1A6#0000F3FFCA135100
(1747656182.279153) can0 2A6#00000000DD00A400
(1747656182.316231) can0 227#00007017D007D007
(1747656182.317222) can0 327#0000000000000000
(1747656182.318165) can0 1A6#0000F3FFCA135100
(1747656182.319132) can0 2A6#00000000DD00A400
(1747656182.356247) can0 227#00007017D007D007
(1747656182.357233) can0 327#0000000000000000
(1747656182.358176) can0 1A6#0000F3FFCA135100
(1747656182.359151) can0 2A6#00000000DE00A400
(1747656182.396173) can0 227#00007017D007D007
(1747656182.397164) can0 327#0000000000000000
(1747656182.398107) can0 1A6#0000F3FFCA135100
(1747656182.399083) can0 2A6#00000000DE00A400
(1747656182.436137) can0 227#00007017D007D007
(1747656182.437128) can0 327#0000000000000000
(1747656182.438071) can0 1A6#0000F3FFCA135100
(1747656182.439046) can0 2A6#00000000DE00A400
(1747656182.476164) can0 227#00007017D007D007
(1747656182.477155) can0 327#0000000000000000
(1747656182.478083) can0 1A6#0300F3FFCA135100
(1747656182.479058) can0 2A6#00000000DE00A400
(1747656182.516104) can0 227#00007017D007D007
(1747656182.517095) can0 327#0000000000000000
(1747656182.518022) can0 1A6#0500F3FFCA135100
(1747656182.518997) can0 2A6#00000000DE00A400
(1747656182.556051) can0 227#00007017D007D007
(1747656182.557042) can0 327#0000000000000000
(1747656182.557969) can0 1A6#0300F3FFCA135100
(1747656182.558945) can0 2A6#00000000DE00A400
(1747656182.596079) can0 227#00007017D007D007
(1747656182.597070) can0 327#0000000000000000
(1747656182.598005) can0 1A6#0200F3FFCA135100
(1747656182.598980) can0 2A6#00000000DE00A400
(1747656182.636034) can0 227#00007017D007D007
(1747656182.637025) can0 327#0000000000000000
(1747656182.637962) can0 1A6#0200F3FFCA135100
(1747656182.638935) can0 2A6#00000000DE00A400
(1747656182.675989) can0 227#00007017D007D007
(1747656182.676980) can0 327#0000000000000000
(1747656182.677915) can0 1A6#0100F3FFCA135100
(1747656182.678874) can0 2A6#03000000DD00A400
(1747656182.716000) can0 227#00007017D007D007
(1747656182.716991) can0 327#0000000000000000
(1747656182.717926) can0 1A6#0100F3FFCA135100
(1747656182.718893) can0 2A6#06000000DD00A400
(1747656182.755963) can0 227#00007017D007D007
(1747656182.756954) can0 327#0000000000000000
(1747656182.757897) can0 1A6#0000F3FFCA135100
(1747656182.758856) can0 2A6#08000000DE00A400
(1747656182.795894) can0 227#00007017D007D007
(1747656182.796885) can0 327#0000000000000000
(1747656182.797828) can0 1A6#0000F3FFCA135100
(1747656182.798780) can0 2A6#07000000DE00A400
(1747656182.835914) can0 227#00007017D007D007
(1747656182.836905) can0 327#0000000000000000
(1747656182.837848) can0 1A6#0000F3FFCA135100
(1747656182.838815) can0 2A6#06000000DE00A400
(1747656182.875893) can0 227#00007017D007D007
(1747656182.876884) can0 327#0000000000000000
(1747656182.877828) can0 1A6#0000F3FFCA135100
(1747656182.878787) can0 2A6#05000000DE00A400
(1747656182.915809) can0 227#00007017D007D007
(1747656182.916800) can0 327#0000000000000000
(1747656182.917743) can0 1A6#0000F3FFCA135100
(1747656182.918702) can0 2A6#02000000DD00A400
(1747656182.955828) can0 227#00007017D007D007
(1747656182.956819) can0 327#0000000000000000
(1747656182.957763) can0 1A6#0000F3FFCA135100
(1747656182.958738) can0 2A6#00000000DE00A400
(1747656182.995800) can0 227#00007017D007D007
(1747656182.996791) can0 327#0000000000000000
(1747656182.997734) can0 1A6#0000F3FFCA135100
(1747656182.998701) can0 2A6#00000000DD00A400
(1747656183.035731) can0 227#00007017D007D007
(1747656183.036722) can0 327#0000000000000000
(1747656183.037665) can0 1A6#0000F3FFCA135100
(1747656183.038640) can0 2A6#00000000DE00A400
(1747656183.075687) can0 227#00007017D007D007
(1747656183.076677) can0 327#0000000000000000
(1747656183.077620) can0 1A6#0000F3FFCA135100
(1747656183.078587) can0 2A6#00000000DD00A400
(1747656183.115713) can0 227#00007017D007D007
(1747656183.116705) can0 327#0000000000000000
(1747656183.117648) can0 1A6#0000F3FFCA135100
(1747656183.118623) can0 2A6#00000000DE00A400
(1747656183.155661) can0 227#00007017D007D007
(1747656183.156652) can0 327#0000000000000000
(1747656183.157595) can0 1A6#0000F3FFCA135100
(1747656183.158570) can0 2A6#00000000DE00A400
(1747656183.195608) can0 227#00007017D007D007
(1747656183.196600) can0 327#0000000000000000
(1747656183.197543) can0 1A6#0000F3FFCA135100
(1747656183.198510) can0 2A6#00000000DD00A400
(1747656183.235636) can0 227#00007017D007D007
(1747656183.236627) can0 327#0000000000000000
(1747656183.237570) can0 1A6#0000F3FFCA135100
(1747656183.238545) can0 2A6#00000000DE00A400
(1747656183.275583) can0 227#00007017D007D007
(1747656183.276575) can0 327#0000000000000000
(1747656183.277518) can0 1A6#0000F3FFCA135100
(1747656183.278493) can0 2A6#00000000DE00A400
(1747656183.315523) can0 227#00007017D007D007
(1747656183.316514) can0 327#0000000000000000
(1747656183.317458) can0 1A6#0000F3FFCA135100
(1747656183.318432) can0 2A6#00000000DE00A400
(1747656183.355550) can0 227#00007017D007D007
(1747656183.356541) can0 327#0000000000000000
(1747656183.357484) can0 1A6#0000F3FFCA135100
(1747656183.358459) can0 2A6#00000000DE00A400
(1747656183.395513) can0 227#00007017D007D007
(1747656183.396504) can0 327#0000000000000000
(1747656183.397450) can0 1A6#0000F3FFCA135100
(1747656183.398414) can0 2A6#00000000DD00A400
(1747656183.435443) can0 227#00007017D007D007
(1747656183.436427) can0 327#0000000000000000
(1747656183.437370) can0 1A6#0000F3FFCA135100
(1747656183.438345) can0 2A6#00000000DE00A400
(1747656183.475463) can0 227#00007017D007D007
(1747656183.476454) can0 327#0000000000000000
(1747656183.477398) can0 1A6#0000F3FFCA135100
(1747656183.478373) can0 2A6#00000000DE00A400
(1747656183.515435) can0 227#00007017D007D007
(1747656183.516426) can0 327#0000000000000000
(1747656183.517369) can0 1A6#0000F3FFCA135100
(1747656183.518336) can0 2A6#00000000DD00A400
(1747656183.555358) can0 227#00007017D007D007
(1747656183.556349) can0 327#0000000000000000
(1747656183.557292) can0 1A6#0000F3FFCA135100
(1747656183.558267) can0 2A6#00000000DE00A400
(1747656183.595337) can0 227#00007017D007D007
(1747656183.596328) can0 327#0000000000000000
(1747656183.597271) can0 1A6#0000F3FFCA135100
(1747656183.598238) can0 2A6#00000000DD00A400
(1747656183.635356) can0 227#00007017D007D007
(1747656183.636347) can0 327#0000000000000000
(1747656183.637290) can0 1A6#0000F3FFCA135100
(1747656183.638265) can0 2A6#00000000DE00A400
(1747656183.675279) can0 227#00007017D007D007
(1747656183.676270) can0 327#0000000000000000
(1747656183.677213) can0 1A6#0000F3FFCA135100
(1747656183.678180) can0 2A6#00000000DD00A400
(1747656183.715242) can0 227#00007017D007D007
(1747656183.716233) can0 327#0000000000000000
(1747656183.717176) can0 1A6#0000F3FFCA135100
(1747656183.718144) can0 2A6#00000000DD00A400
(1747656183.755270) can0 227#00007017D007D007
(1747656183.756261) can0 327#0000000000000000
(1747656183.757204) can0 1A6#0000F3FFCA135100
(1747656183.758171) can0 2A6#00000000DD00A400
(1747656183.795217) can0 227#00007017D007D007
(1747656183.796208) can0 327#0000000000000000
(1747656183.797151) can0 1A6#0000F3FFCA135100
(1747656183.798127) can0 2A6#00000000DE00A400
(1747656183.835132) can0 227#09007017A00F8813
(1747656183.836131) can0 327#0100000000000000
(1747656183.837082) can0 1A6#0000FCFFFB125100
(1747656183.838057) can0 2A6#00000000DE00A400
(1747656183.875159) can0 227#09007017A00F8813
(1747656183.876159) can0 327#0100000000000000
(1747656183.877110) can0 1A6#0000FFFF63135100
(1747656183.878077) can0 2A6#00000000DD00A400
(1747656183.915115) can0 227#09007017A00F8813
(1747656183.916114) can0 327#0100000000000000
(1747656183.917073) can0 1A6#0000FFFF8F135100
(1747656183.918040) can0 2A6#00000000DD00A400
(1747656183.955046) can0 227#09007017A00F8813
(1747656183.956046) can0 327#0100000000000000
(1747656183.956997) can0 1A6#0000FFFFAC135100
(1747656183.957964) can0 2A6#00000000DD00A400
(1747656183.995074) can0 227#09007017A00F8813
(1747656183.996073) can0 327#0100000000000000
(1747656183.997016) can0 1A6#0000FFFFBB135100
(1747656183.997991) can0 2A6#00000000DE00A400
(1747656184.035061) can0 227#00007017A00F8813
(1747656184.036053) can0 327#0000000000000000
(1747656184.037012) can0 1A6#0000FFFFC3135100
(1747656184.037987) can0 2A6#00000000DE00A400
(1747656184.075001) can0 227#00007017A00F8813
(1747656184.075992) can0 327#0000000000000000
(1747656184.076927) can0 1A6#A800FFFFCA135100
(1747656184.077902) can0 2A6#00000000DE00A400
(1747656184.115020) can0 227#00007017A00F8813
(1747656184.116012) can0 327#0000000000000000
(1747656184.116947) can0 1A6#7F00FFFFC3135100
(1747656184.117914) can0 2A6#00000000DD00A400
(1747656184.155016) can0 227#00007017A00F8813
(1747656184.156007) can0 327#0000000000000000
(1747656184.156942) can0 1A6#4800FFFFCA135100
(1747656184.157901) can0 2A6#01000000DE00A400
(1747656184.194931) can0 227#00007017A00F8813
(1747656184.195923) can0 327#0000000000000000
(1747656184.196866) can0 1A6#3700FFFFC3135100
(1747656184.197825) can0 2A6#02000000DD00A400
(1747656184.234823) can0 227#00007017A00F8813
(1747656184.235814) can0 327#0000000000000000
(1747656184.236751) can0 1A6#2900FFFFC3135100
(1747656184.237708) can0 2A6#02000000DD00A400
(1747656184.274834) can0 227#00007017A00F8813
(1747656184.275825) can0 327#0000000000000000
(1747656184.276744) can0 1A6#C9003B00BB135100
(1747656184.277703) can0 2A6#01000000DE00A400
(1747656184.314765) can0 227#00007017A00F8813
(1747656184.315757) can0 327#0000000000000000
(1747656184.316676) can0 1A6#A2013B00BB135100
(1747656184.317651) can0 2A6#00000000DE00A400
(1747656184.354865) can0 227#00007017A00F8813
(1747656184.355858) can0 327#0000000000000000
(1747656184.356799) can0 1A6#3F01FFFFC3135100
(1747656184.357774) can0 2A6#00000000DE00A400
(1747656184.394852) can0 227#00007017A00F8813
(1747656184.395844) can0 327#0000000000000000
(1747656184.396779) can0 1A6#F600FFFFC3135100
(1747656184.397746) can0 2A6#00000000DD00A400
(1747656184.434792) can0 227#00007017A00F8813
(1747656184.435783) can0 327#0000000000000000
(1747656184.436726) can0 1A6#BE00FFFFC3135100
(1747656184.437701) can0 2A6#00000000DE00A400
(1747656184.474795) can0 227#00007017A00F8813
(1747656184.475786) can0 327#0000000000000000
(1747656184.476729) can0 1A6#7800FFFFC3135100
(1747656184.477704) can0 2A6#00000000DE00A400
(1747656184.514742) can0 227#09007017A00F8813
(1747656184.515710) can0 327#4A02000000000000
(1747656184.516645) can0 1A6#6300FFFFC3135100
(1747656184.517620) can0 2A6#00000000DE00A400
(1747656184.554698) can0 227#09007017A00F8813
(1747656184.555673) can0 327#0402000000000000
(1747656184.556600) can0 1A6#5200FFFFC3135100
(1747656184.557575) can0 2A6#00000000DE00A400
(1747656184.594645) can0 227#09007017A00F8813
(1747656184.595644) can0 327#0100000000000000
(1747656184.596587) can0 1A6#4600FFFFC3135100
(1747656184.597563) can0 2A6#00000000DE00A400
(1747656184.634665) can0 227#09007017A00F8813
(1747656184.635664) can0 327#0100000000000000
(1747656184.636599) can0 1A6#3300FFFFC3135100
(1747656184.637574) can0 2A6#00000000DE00A400
(1747656184.674652) can0 227#00007017A00F8813
(1747656184.675643) can0 327#0000000000000000
(1747656184.676578) can0 1A6#2D00FFFFC3135100
(1747656184.677553) can0 2A6#00000000DE00A400
(1747656184.714567) can0 227#00007017A00F8813
(1747656184.715558) can0 327#0000000000000000
(1747656184.716493) can0 1A6#2900FFFFC3135100
(1747656184.717468) can0 2A6#00000000DE00A400
(1747656184.754602) can0 227#00007017A00F8813
(1747656184.755593) can0 327#0000000000000000
(1747656184.756529) can0 1A6#2700FFFFC3135100
(1747656184.757504) can0 2A6#00000000DE00A400
(1747656184.794983) can0 227#09007017A00F8813
(1747656184.795948) can0 327#740F000000000000
(1747656184.796883) can0 1A6#2300FFFFC3135100
(1747656184.797858) can0 2A6#00000000DE00A400
(1747656184.834888) can0 227#09007017A00F8813
(1747656184.835863) can0 327#2631000000000000
(1747656184.836806) can0 1A6#2100FFFFC3135100
(1747656184.837785) can0 2A6#00000000DE00A400
(1747656184.874915) can0 227#09007017A00F8813
(1747656184.875890) can0 327#2C4E000000000000
(1747656184.876826) can0 1A6#20000200C3135100
(1747656184.877801) can0 2A6#00000000DE00A400
(1747656184.914889) can0 227#09007017A00F8813
(1747656184.915846) can0 327#8855000000000000
(1747656184.916781) can0 1A6#2D000200C3135100
(1747656184.917756) can0 2A6#00000000DE00A400
(1747656184.954810) can0 227#09007017A00F8813
(1747656184.955777) can0 327#3851000000000000
(1747656184.956720) can0 1A6#40000400C3135100
(1747656184.957695) can0 2A6#00000000DE00A400
(1747656184.994861) can0 227#09007017A00F8813
(1747656184.995836) can0 327#9240000000000000
(1747656184.996771) can0 1A6#4A000500BB135100
(1747656184.997747) can0 2A6#00000000DE00A400
(1747656185.034817) can0 227#09007017A00F8813
(1747656185.035784) can0 327#D021000000000000
(1747656185.036704) can0 1A6#9C001A00BB135100
(1747656185.037671) can0 2A6#FFFF0000DE00A400
(1747656185.074773) can0 227#09007017A00F8813
(1747656185.075756) can0 327#740C000000000000
(1747656185.076691) can0 1A6#E9002400BB135100
(1747656185.077658) can0 2A6#FFFF0000DE00A400
(1747656185.114744) can0 227#09007017A00F8813
(1747656185.115727) can0 327#2400000000000000
(1747656185.116662) can0 1A6#78012C00BB135100
(1747656185.117621) can0 2A6#1E000100DE00A400
(1747656185.154723) can0 227#09007017A00F8813
(1747656185.155722) can0 327#0100000000000000
(1747656185.156633) can0 1A6#AE012E00BB135100
(1747656185.157584) can0 2A6#23000100DD00A400
(1747656185.194686) can0 227#09007017A00F8813
(1747656185.195677) can0 327#2C00000000000000
(1747656185.196596) can0 1A6#D8012B00BB135100
(1747656185.197563) can0 2A6#1F000100DD00A400
(1747656185.234665) can0 227#09007017A00F8813
(1747656185.235649) can0 327#4A06000000000000
(1747656185.236560) can0 1A6#C6011200C3135100
(1747656185.237511) can0 2A6#08000100DE00A400
(1747656185.274637) can0 227#09007017A00F8813
(1747656185.275620) can0 327#4610000000000000
(1747656185.276539) can0 1A6#77010D00C3135100
(1747656185.277482) can0 2A6#F1FF0000DE00A400
(1747656185.314611) can0 227#09007017A00F8813
(1747656185.315583) can0 327#4C19000000000000
(1747656185.316494) can0 1A6#73011700BB135100
(1747656185.317461) can0 2A6#0E000000DE00A400
(1747656185.354587) can0 227#09007017A00F8813
(1747656185.355562) can0 327#5222000000000000
(1747656185.356473) can0 1A6#72011600C3135100
(1747656185.357434) can0 2A6#24000000DE00A400
(1747656185.394558) can0 227#09007017A00F8813
(1747656185.395533) can0 327#5827000000000000
(1747656185.396460) can0 1A6#77011B00BB135100
(1747656185.397419) can0 2A6#19000100DE00A400
(1747656185.434545) can0 227#09007017A00F8813
(1747656185.435504) can0 327#8C27000000000000
(1747656185.436418) can0 1A6#AB012700BB135100
(1747656185.437382) can0 2A6#1F000100DF00A400
(1747656185.474452) can0 227#09007017A00F8813
(1747656185.475427) can0 327#1C27000000000000
(1747656185.476347) can0 1A6#D3012C00BB135100
(1747656185.477314) can0 2A6#1B000100DF00A400
(1747656185.514480) can0 227#09007017A00F8813
(1747656185.515463) can0 327#BE25000000000000
(1747656185.516382) can0 1A6#04023D00BB135100
(1747656185.517341) can0 2A6#23000100DF00A400
(1747656185.554467) can0 227#09007017A00F8813
(1747656185.555450) can0 327#BE25000000000000
(1747656185.556385) can0 1A6#35024200B4135100
(1747656185.557336) can0 2A6#2A000100DE00A400
(1747656185.594454) can0 227#09007017A00F8813
(1747656185.595443) can0 327#2626000000000000
(1747656185.596356) can0 1A6#A2024D00B4135100
(1747656185.597299) can0 2A6#2B000200DE00A400
(1747656185.634409) can0 227#09007017A00F8813
(1747656185.635377) can0 327#A02A000000000000
(1747656185.636296) can0 1A6#D1025600B4135100
(1747656185.637255) can0 2A6#3A000200DD00A400
(1747656185.674389) can0 227#09007017A00F8813
(1747656185.675364) can0 327#D430000000000000
(1747656185.676307) can0 1A6#01036000AC135100
(1747656185.677274) can0 2A6#3E000200DE00A400
(1747656185.714392) can0 227#09007017A00F8813
(1747656185.715367) can0 327#0434000000000000
(1747656185.716302) can0 1A6#30036D00AC135100
(1747656185.717245) can0 2A6#51000300DF00A400
(1747656185.754331) can0 227#09007017A00F8813
(1747656185.755306) can0 327#0434000000000000
(1747656185.756235) can0 1A6#88037600AC135100
(1747656185.757192) can0 2A6#58000400DF00A400
(1747656185.794310) can0 227#09007017A00F8813
(1747656185.795278) can0 327#8233000000000000
(1747656185.796197) can0 1A6#B3038B009E135100
(1747656185.797156) can0 2A6#69000400DF00A400
(1747656185.834314) can0 227#09007017A00F8813
(1747656185.835289) can0 327#942C000000000000
(1747656185.836216) can0 1A6#DF0399009E135100
(1747656185.837151) can0 2A6#76000500DE00A400
(1747656185.874253) can0 227#09007017A00F8813
(1747656185.875228) can0 327#FC28000000000000
(1747656185.876155) can0 1A6#0B04A2009E135100
(1747656185.877098) can0 2A6#86000500DF00A400
(1747656185.914224) can0 227#09007017A00F8813
(1747656185.915207) can0 327#3826000000000000
(1747656185.916126) can0 1A6#6304BB0096135100
(1747656185.917085) can0 2A6#98000700E000A400
(1747656185.954235) can0 227#09007017A00F8813
(1747656185.955202) can0 327#EE1F000000000000
(1747656185.956121) can0 1A6#8904CD008F135100
(1747656185.957080) can0 2A6#A8000800DF00A400
(1747656185.994166) can0 227#09007017A00F8813
(1747656185.995126) can0 327#EA15000000000000
(1747656185.996049) can0 1A6#B104DD008F135100
(1747656185.996996) can0 2A6#BC000800DF00A400
(1747656186.034146) can0 227#09007017A00F8813
(1747656186.035121) can0 327#5A08000000000000
(1747656186.036051) can0 1A6#D604EF0080135100
(1747656186.037007) can0 2A6#D0000A00E000A400
(1747656186.074197) can0 227#09007017A00F8813
(1747656186.075196) can0 327#0100000000000000
(1747656186.076131) can0 1A6#0405E80088135100
(1747656186.077074) can0 2A6#DC000B00DF00A400
(1747656186.114088) can0 227#09007017A00F8813
(1747656186.115087) can0 327#0100000000000000
(1747656186.116007) can0 1A6#F504C1008F135100
(1747656186.116950) can0 2A6#DE000B00E000A400
(1747656186.154092) can0 227#00007017A00F8813
(1747656186.155083) can0 327#0000000000000000
(1747656186.156002) can0 1A6#CB045700AC135100
(1747656186.156945) can0 2A6#D1000B00E000A400
(1747656186.194039) can0 227#00007017A00F8813
(1747656186.195030) can0 327#0000000000000000
(1747656186.195965) can0 1A6#33042600B4135100
(1747656186.196916) can0 2A6#B3000B00E000A400
(1747656186.233954) can0 227#00007017A00F8813
(1747656186.234945) can0 327#0000000000000000
(1747656186.235872) can0 1A6#E9020D00BB135100
(1747656186.236815) can0 2A6#C5000900E000A400
(1747656186.273965) can0 227#00007017A00F8813
(1747656186.274956) can0 327#0000000000000000
(1747656186.275884) can0 1A6#53020500BB135100
(1747656186.276819) can0 2A6#BA000A00E100A400
(1747656186.313921) can0 227#09007017A00F8813
(1747656186.314920) can0 327#0100000000000000
(1747656186.315847) can0 1A6#E1010300BB135100
(1747656186.316782) can0 2A6#C9000A00E100A400
(1747656186.353884) can0 227#09007017A00F8813
(1747656186.354859) can0 327#7001000000000000
(1747656186.355794) can0 1A6#9201FFFFBB135100
(1747656186.356737) can0 2A6#FE000B00E100A400
(1747656186.393879) can0 227#09007017A00F8813
(1747656186.394846) can0 327#740F000000000000
(1747656186.395789) can0 1A6#31010300BB135100
(1747656186.396724) can0 2A6#F6000D00E100A400
(1747656186.433874) can0 227#09007017A00F8813
(1747656186.434849) can0 327#381E000000000000
(1747656186.435776) can0 1A6#F9000300BB135100
(1747656186.436727) can0 2A6#D9000D00E100A400
(1747656186.473869) can0 227#09007017A00F8813
(1747656186.474844) can0 327#2C2C000000000000
(1747656186.475775) can0 1A6#C8000200BB135100
(1747656186.476707) can0 2A6#D9000B00E100A400
(1747656186.513809) can0 227#09007017A00F8813
(1747656186.514778) can0 327#9E3A000000000000
(1747656186.515711) can0 1A6#AC000800BB135100
(1747656186.516646) can0 2A6#EC000B00E300A400
(1747656186.553780) can0 227#09007017A00F8813
(1747656186.554763) can0 327#283D000000000000
(1747656186.555698) can0 1A6#9C000800BB135100
(1747656186.556641) can0 2A6#F5000C00E300A400
(1747656186.593799) can0 227#09007017A00F8813
(1747656186.594790) can0 327#083D000000000000
(1747656186.595725) can0 1A6#A8000E00BB135100
(1747656186.596684) can0 2A6#FA000D00E100A400
(1747656186.633723) can0 227#09007017A00F8813
(1747656186.634690) can0 327#963C000000000000
(1747656186.635609) can0 1A6#B9001200BB135100
(1747656186.636552) can0 2A6#EE000D00E300A400
(1747656186.673702) can0 227#09007017A00F8813
(1747656186.674678) can0 327#C037000000000000
(1747656186.675629) can0 1A6#DF001F00B4135100
(1747656186.676572) can0 2A6#CC000C00E300A400
(1747656186.713754) can0 227#09007017A00F8813
(1747656186.714737) can0 327#1C32000000000000
(1747656186.715656) can0 1A6#5D012E00B4135100
(1747656186.716599) can0 2A6#CD000A00E100A400
(1747656186.753637) can0 227#09007017A00F8813
(1747656186.754604) can0 327#AC2E000000000000
(1747656186.755555) can0 1A6#9F013500B4135100
(1747656186.756491) can0 2A6#DC000A00E300A400
(1747656186.793608) can0 227#09007017A00F8813
(1747656186.794583) can0 327#E62C000000000000
(1747656186.795518) can0 1A6#DF014600AC135100
(1747656186.796461) can0 2A6#D8000B00E300A400
(1747656186.833587) can0 227#09007017A00F8813
(1747656186.834546) can0 327#9229000000000000
(1747656186.835473) can0 1A6#21025600AC135100
(1747656186.836408) can0 2A6#DC000B00E300A400
(1747656186.873582) can0 227#09007017A00F8813
(1747656186.874565) can0 327#F822000000000000
(1747656186.875500) can0 1A6#9D026100AC135100
(1747656186.876435) can0 2A6#E2000B00E300A400
(1747656186.913537) can0 227#09007017A00F8813
(1747656186.914520) can0 327#601C000000000000
(1747656186.915431) can0 1A6#D70272009E135100
(1747656186.916374) can0 2A6#E5000B00E100A400
(1747656186.953516) can0 227#09007017A00F8813
(1747656186.954491) can0 327#4415000000000000
(1747656186.955426) can0 1A6#0E0384009E135100
(1747656186.956362) can0 2A6#F1000B00E300A400
(1747656186.993512) can0 227#09007017A00F8813
(1747656186.994495) can0 327#A810000000000000
(1747656186.995443) can0 1A6#4103900096135100
(1747656186.996389) can0 2A6#FB000C00E300A400
(1747656187.033459) can0 227#09007017A00F8813
(1747656187.034434) can0 327#B010000000000000
(1747656187.035369) can0 1A6#A003A00096135100
(1747656187.036312) can0 2A6#04010D00E100A400
(1747656187.073431) can0 227#09007017A00F8813
(1747656187.074397) can0 327#D210000000000000
(1747656187.075309) can0 1A6#CE03A9008F135100
(1747656187.076251) can0 2A6#10010D00E300A400
(1747656187.113443) can0 227#09007017A00F8813
(1747656187.114424) can0 327#3C11000000000000
(1747656187.115359) can0 1A6#F303BE008F135100
(1747656187.116311) can0 2A6#1F010E00E100A400
(1747656187.153373) can0 227#09007017A00F8813
(1747656187.154332) can0 327#5E11000000000000
(1747656187.155267) can0 1A6#1804D10088135100
(1747656187.156202) can0 2A6#31010E00E300A400
(1747656187.193344) can0 227#09007017A00F8813
(1747656187.194328) can0 327#3C11000000000000
(1747656187.195271) can0 1A6#5C04DF0080135100
(1747656187.196206) can0 2A6#46011000E100A400
(1747656187.233388) can0 227#09007017A00F8813
(1747656187.234355) can0 327#CE0E000000000000
(1747656187.235274) can0 1A6#7B04E90079135100
(1747656187.236209) can0 2A6#58011100E300A400
(1747656187.273287) can0 227#09007017A00F8813
(1747656187.274262) can0 327#D209000000000000
(1747656187.275197) can0 1A6#9504E80080135100
(1747656187.276124) can0 2A6#6D011100E100A400
(1747656187.313250) can0 227#09007017A00F8813
(1747656187.314249) can0 327#2002000000000000
(1747656187.315176) can0 1A6#9304C90080135100
(1747656187.316103) can0 2A6#6D011300E300A400
(1747656187.353301) can0 227#09007017A00F8813
(1747656187.354300) can0 327#0100000000000000
(1747656187.355219) can0 1A6#5004AD008F135100
(1747656187.356146) can0 2A6#72011300E300A400
(1747656187.393192) can0 227#09007017A00F8813
(1747656187.394191) can0 327#0100000000000000
(1747656187.395134) can0 1A6#10047F0096135100
(1747656187.396070) can0 2A6#75011300E300A400
(1747656187.433172) can0 227#09007017A00F8813
(1747656187.434171) can0 327#0100000000000000
(1747656187.435098) can0 1A6#BE035C00A5135100
(1747656187.436049) can0 2A6#7F011300E300A400
(1747656187.473143) can0 227#09007017A00F8813
(1747656187.474142) can0 327#0100000000000000
(1747656187.475053) can0 1A6#64034300A5135100
(1747656187.475988) can0 2A6#90011300E300A400
(1747656187.513122) can0 227#09007017A00F8813
(1747656187.514121) can0 327#0100000000000000
(1747656187.515040) can0 1A6#AB023200AC135100
(1747656187.515975) can0 2A6#91011500E400A400
(1747656187.553077) can0 227#09007017A00F8813
(1747656187.554053) can0 327#D200000000000000
(1747656187.554972) can0 1A6#54022100AC135100
(1747656187.555907) can0 2A6#93011500E300A400
(1747656187.593049) can0 227#09007017A00F8813
(1747656187.594024) can0 327#460D000000000000
(1747656187.594959) can0 1A6#07021800B4135100
(1747656187.595894) can0 2A6#8E011500E400A400
(1747656187.633060) can0 227#09007017A00F8813
(1747656187.634051) can0 327#2812000000000000
(1747656187.634978) can0 1A6#C3011800B4135100
(1747656187.635921) can0 2A6#8D011500E400A400
(1747656187.673007) can0 227#09007017A00F8813
(1747656187.673990) can0 327#FC15000000000000
(1747656187.674925) can0 1A6#75011A00B4135100
(1747656187.675868) can0 2A6#98011500E400A400
(1747656187.712978) can0 227#09007017A00F8813
(1747656187.713945) can0 327#D019000000000000
(1747656187.714888) can0 1A6#62011C00B4135100
(1747656187.715823) can0 2A6#9C011500E400A400
(1747656187.752981) can0 227#09007017A00F8813
(1747656187.753956) can0 327#E41C000000000000
(1747656187.754891) can0 1A6#5D012100AC135100
(1747656187.755834) can0 2A6#96011500E400A400
(1747656187.792920) can0 227#09007017A00F8813
(1747656187.793895) can0 327#D01D000000000000
(1747656187.794822) can0 1A6#68012900AC135100
(1747656187.795757) can0 2A6#97011500E400A400
(1747656187.832891) can0 227#09007017A00F8813
(1747656187.833866) can0 327#D01D000000000000
(1747656187.834785) can0 1A6#92013300AC135100
(1747656187.835720) can0 2A6#9A011500E400A400
(1747656187.872910) can0 227#09007017A00F8813
(1747656187.873885) can0 327#D01D000000000000
(1747656187.874804) can0 1A6#B2013900AC135100
(1747656187.875739) can0 2A6#95011500E400A400
(1747656187.912833) can0 227#09007017A00F8813
(1747656187.913808) can0 327#D01D000000000000
(1747656187.914720) can0 1A6#DB014600A5135100
(1747656187.915655) can0 2A6#97011500E400A400
(1747656187.952805) can0 227#09007017A00F8813
(1747656187.953772) can0 327#AC1D000000000000
(1747656187.954691) can0 1A6#07025500A5135100
(1747656187.955634) can0 2A6#9D011500E400A400
(1747656187.992864) can0 227#09007017A00F8813
(1747656187.993831) can0 327#321D000000000000
(1747656187.994742) can0 1A6#690262009E135100
(1747656187.995693) can0 2A6#9F011500E400A400
(1747656188.032763) can0 227#09007017A00F8813
(1747656188.033746) can0 327#3E18000000000000
(1747656188.034673) can0 1A6#990270009E135100
(1747656188.035608) can0 2A6#A4011500E400A400
(1747656188.072734) can0 227#09007017A00F8813
(1747656188.073693) can0 327#E211000000000000
(1747656188.074628) can0 1A6#C702800096135100
(1747656188.075564) can0 2A6#AB011600E400A400
(1747656188.112785) can0 227#09007017A00F8813
(1747656188.113760) can0 327#BC0A000000000000
(1747656188.114680) can0 1A6#F3028F008F135100
(1747656188.115615) can0 2A6#B5011600E400A400
(1747656188.152677) can0 227#09007017A00F8813
(1747656188.153652) can0 327#0403000000000000
(1747656188.154579) can0 1A6#29038C0096135100
(1747656188.155514) can0 2A6#BB011700E400A400
(1747656188.192640) can0 227#09007017A00F8813
(1747656188.193615) can0 327#5602000000000000
(1747656188.194534) can0 1A6#1E036F009E135100
(1747656188.195471) can0 2A6#B9011700E400A400
(1747656188.232603) can0 227#09007017A00F8813
(1747656188.233578) can0 327#E201000000000000
(1747656188.234497) can0 1A6#FB025300A5135100
(1747656188.235432) can0 2A6#BD011700E400A400
(1747656188.272606) can0 227#09007017A00F8813
(1747656188.273605) can0 327#0100000000000000
(1747656188.274524) can0 1A6#CE024800A5135100
(1747656188.275459) can0 2A6#C3011700E400A400
(1747656188.312553) can0 227#09007017A00F8813
(1747656188.313552) can0 327#0100000000000000
(1747656188.314479) can0 1A6#6B023C00AC135100
(1747656188.315422) can0 2A6#C9011800E400A400
(1747656188.352524) can0 227#09007017A00F8813
(1747656188.353523) can0 327#0100000000000000
(1747656188.354466) can0 1A6#34022C00AC135100
(1747656188.355409) can0 2A6#CB011800E400A400
(1747656188.392535) can0 227#09007017A00F8813
(1747656188.393534) can0 327#0100000000000000
(1747656188.394469) can0 1A6#FC011F00AC135100
(1747656188.395420) can0 2A6#C6011800E400A400
(1747656188.432466) can0 227#09007017A00F8813
(1747656188.433465) can0 327#0100000000000000
(1747656188.434392) can0 1A6#C4011800B4135100
(1747656188.435351) can0 2A6#BE011800E400A400
(1747656188.472443) can0 227#09007017A00F8813
(1747656188.473443) can0 327#0100000000000000
(1747656188.474355) can0 1A6#59010F00B4135100
(1747656188.475290) can0 2A6#B6011700E400A400
(1747656188.512456) can0 227#09007017A00F8813
(1747656188.513455) can0 327#0100000000000000
(1747656188.514399) can0 1A6#14010500B4135100
(1747656188.515342) can0 2A6#AF011700E400A400
(1747656188.552391) can0 227#09007017A00F8813
(1747656188.553391) can0 327#0100000000000000
(1747656188.554331) can0 1A6#EC000300B4135100
(1747656188.555266) can0 2A6#A9011700E400A400
(1747656188.592368) can0 227#09007017A00F8813
(1747656188.593351) can0 327#1801000000000000
(1747656188.594294) can0 1A6#C400FFFFB4135100
(1747656188.595237) can0 2A6#9D011600E400A400
(1747656188.632307) can0 227#09007017A00F8813
(1747656188.633298) can0 327#3C01000000000000
(1747656188.634241) can0 1A6#7E000400BB135100
(1747656188.635177) can0 2A6#97011500E400A400
(1747656188.672297) can0 227#09007017A00F8813
(1747656188.673278) can0 327#FE00000000000000
(1747656188.674221) can0 1A6#6F00FFFFB4135100
(1747656188.675156) can0 2A6#A7011500E400A400
(1747656188.712250) can0 227#09007017A00F8813
(1747656188.713250) can0 327#0100000000000000
(1747656188.714193) can0 1A6#83000400BB135100
(1747656188.715128) can0 2A6#B9011700E400A400
(1747656188.752222) can0 227#09007017A00F8813
(1747656188.753221) can0 327#0100000000000000
(1747656188.754156) can0 1A6#9B000800BB135100
(1747656188.755102) can0 2A6#AE011700E400A400
(1747656188.792154) can0 227#09007017A00F8813
(1747656188.793153) can0 327#0100000000000000
(1747656188.794080) can0 1A6#DC000A00BB135100
(1747656188.795015) can0 2A6#9E011600E400A400
(1747656188.832189) can0 227#09007017A00F8813
(1747656188.833188) can0 327#0100000000000000
(1747656188.834123) can0 1A6#01010E00BB135100
(1747656188.835066) can0 2A6#A2011600E400A400
(1747656188.872160) can0 227#09007017A00F8813
(1747656188.873159) can0 327#0100000000000000
(1747656188.874094) can0 1A6#33011400BB135100
(1747656188.875037) can0 2A6#A2011600E400A400
(1747656188.912155) can0 227#09007017A00F8813
(1747656188.913154) can0 327#0100000000000000
(1747656188.914065) can0 1A6#6A011600BB135100
(1747656188.915000) can0 2A6#97011600E400A400
(1747656188.952102) can0 227#09007017A00F8813
(1747656188.953101) can0 327#0100000000000000
(1747656188.954028) can0 1A6#C8011600BB135100
(1747656188.954955) can0 2A6#96011500E300A400
(1747656188.992073) can0 227#09007017A00F8813
(1747656188.993072) can0 327#0100000000000000
(1747656188.993983) can0 1A6#F3011700BB135100
(1747656188.994918) can0 2A6#8E011500E400A400
(1747656189.032092) can0 227#09007017A00F8813
(1747656189.033091) can0 327#0100000000000000
(1747656189.034018) can0 1A6#1A021800BB135100
(1747656189.034970) can0 2A6#83011400E300A400
(1747656189.072024) can0 227#09007017A00F8813
(1747656189.073023) can0 327#0100000000000000
(1747656189.073950) can0 1A6#3C021500BB135100
(1747656189.074920) can0 2A6#7C011400E400A400
(1747656189.111987) can0 227#09007017A00F8813
(1747656189.112987) can0 327#0100000000000000
(1747656189.113898) can0 1A6#73021900BB135100
(1747656189.114841) can0 2A6#6E011400E400A400
(1747656189.151943) can0 227#09007017A00F8813
(1747656189.152942) can0 327#0100000000000000
(1747656189.153853) can0 1A6#8B021700BB135100
(1747656189.154780) can0 2A6#61011200E300A400
(1747656189.191930) can0 227#09007017A00F8813
(1747656189.192929) can0 327#0100000000000000
(1747656189.193848) can0 1A6#A1021800BB135100
(1747656189.194783) can0 2A6#54011200E300A400
(1747656189.231901) can0 227#09007017A00F8813
(1747656189.232900) can0 327#0100000000000000
(1747656189.233819) can0 1A6#B4021400BB135100
(1747656189.234746) can0 2A6#42011100E300A400
(1747656189.271944) can0 227#09007017A00F8813
(1747656189.272943) can0 327#0100000000000000
(1747656189.273862) can0 1A6#CC021600C3135100
(1747656189.274821) can0 2A6#35011000E300A400
(1747656189.311851) can0 227#09007017A00F8813
(1747656189.312826) can0 327#7001000000000000
(1747656189.313753) can0 1A6#D1021800BB135100
(1747656189.314713) can0 2A6#27011000E400A400
(1747656189.351823) can0 227#09007017A00F8813
(1747656189.352798) can0 327#D002000000000000
(1747656189.353709) can0 1A6#CB021300BB135100
(1747656189.354644) can0 2A6#1B010F00E300A400
(1747656189.391794) can0 227#09007017A00F8813
(1747656189.392762) can0 327#7607000000000000
(1747656189.393681) can0 1A6#AC020E00BB135100
(1747656189.394616) can0 2A6#1C010F00E300A400
(1747656189.431782) can0 227#09007017A00F8813
(1747656189.432757) can0 327#5A08000000000000
(1747656189.433684) can0 1A6#29020A00BB135100
(1747656189.434627) can0 2A6#11010F00E400A400
(1747656189.471745) can0 227#09007017A00F8813
(1747656189.472728) can0 327#8209000000000000
(1747656189.473663) can0 1A6#CC010400BB135100
(1747656189.474614) can0 2A6#19010E00E300A400
(1747656189.511724) can0 227#09007017A00F8813
(1747656189.512699) can0 327#DA09000000000000
(1747656189.513634) can0 1A6#70010300BB135100
(1747656189.514570) can0 2A6#14010E00E300A400
(1747656189.551704) can0 227#09007017A00F8813
(1747656189.552679) can0 327#DA09000000000000
(1747656189.553614) can0 1A6#19010A00BB135100
(1747656189.554549) can0 2A6#0D010E00E300A400
(1747656189.591659) can0 227#09007017A00F8813
(1747656189.592635) can0 327#DA09000000000000
(1747656189.593570) can0 1A6#D5000900BB135100
(1747656189.594529) can0 2A6#11010E00E400A400
(1747656189.631623) can0 227#09007017A00F8813
(1747656189.632598) can0 327#DA09000000000000
(1747656189.633533) can0 1A6#D0000E00B4135100
(1747656189.634477) can0 2A6#0F010E00E300A400
(1747656189.671635) can0 227#09007017A00F8813
(1747656189.672610) can0 327#DA09000000000000
(1747656189.673537) can0 1A6#E1001700B4135100
(1747656189.674480) can0 2A6#EC000D00E300A400
(1747656189.711574) can0 227#09007017A00F8813
(1747656189.712542) can0 327#B809000000000000
(1747656189.713469) can0 1A6#07012300B4135100
(1747656189.714412) can0 2A6#DE000D00E400A400
(1747656189.751546) can0 227#09007017A00F8813
(1747656189.752529) can0 327#4808000000000000
(1747656189.753458) can0 1A6#6C012D00B4135100
(1747656189.754391) can0 2A6#EB000B00E300A400
(1747656189.791501) can0 227#09007017A00F8813
(1747656189.792484) can0 327#1A00000000000000
(1747656189.793419) can0 1A6#80012300B4135100
(1747656189.794370) can0 2A6#E3000C00E400A400
(1747656189.831488) can0 227#09007017A00F8813
(1747656189.832487) can0 327#0100000000000000
(1747656189.833398) can0 1A6#7B011600BB135100
(1747656189.834357) can0 2A6#DD000C00E400A400
(1747656189.871483) can0 227#09007017A00F8813
(1747656189.872482) can0 327#0100000000000000
(1747656189.873393) can0 1A6#5A010900BB135100
(1747656189.874336) can0 2A6#D2000B00E300A400
(1747656189.911534) can0 227#09007017A00F8813
(1747656189.912533) can0 327#0100000000000000
(1747656189.913468) can0 1A6#F3000400BB135100
(1747656189.914411) can0 2A6#C5000A00E300A400
(1747656189.951425) can0 227#01007017A00F8813
(1747656189.952416) can0 327#0000000000000000
(1747656189.953343) can0 1A6#C6000200BB135100
(1747656189.954286) can0 2A6#BA000A00E400A400
(1747656189.991381) can0 227#00007017A00F8813
(1747656189.992372) can0 327#0000000000000000
(1747656189.993307) can0 1A6#A8000400BB135100
(1747656189.994242) can0 2A6#AF000900E300A400
(1747656190.031360) can0 227#00007017A00F8813
(1747656190.032351) can0 327#0000000000000000
(1747656190.033287) can0 1A6#C6001300BB135100
(1747656190.034246) can0 2A6#A3000900E400A400
(1747656190.071292) can0 227#00007017A00F8813
(1747656190.072283) can0 327#0000000000000000
(1747656190.073210) can0 1A6#25011800BB135100
(1747656190.074161) can0 2A6#BD000800E400A400
(1747656190.111311) can0 227#00007017A00F8813
(1747656190.112302) can0 327#0000000000000000
(1747656190.113237) can0 1A6#60011F00B4135100
(1747656190.114172) can0 2A6#BC000A00E300A400
(1747656190.151274) can0 227#00007017A00F8813
(1747656190.152265) can0 327#0000000000000000
(1747656190.153184) can0 1A6#95012200BB135100
(1747656190.154127) can0 2A6#A8000A00E300A400
(1747656190.191213) can0 227#00007017A00F8813
(1747656190.192205) can0 327#0000000000000000
(1747656190.193140) can0 1A6#BF012100B4135100
(1747656190.194099) can0 2A6#AC000800E300A400
(1747656190.231209) can0 227#00007017A00F8813
(1747656190.232200) can0 327#0000000000000000
(1747656190.233119) can0 1A6#0C022200BB135100
(1747656190.234062) can0 2A6#9E000800E300A400
(1747656190.271196) can0 227#00007017A00F8813
(1747656190.272187) can0 327#0000000000000000
(1747656190.273106) can0 1A6#27022300BB135100
(1747656190.274057) can0 2A6#97000800E300A400
(1747656190.311143) can0 227#00007017A00F8813
(1747656190.312134) can0 327#0000000000000000
(1747656190.313077) can0 1A6#3B022400BB135100
(1747656190.314036) can0 2A6#92000800E400A400
(1747656190.351131) can0 227#00007017A00F8813
(1747656190.352122) can0 327#0000000000000000
(1747656190.353057) can0 1A6#45022400B4135100
(1747656190.354000) can0 2A6#85000800E300A400
(1747656190.391102) can0 227#00007017A00F8813
(1747656190.392093) can0 327#0000000000000000
(1747656190.393021) can0 1A6#40021E00BB135100
(1747656190.393980) can0 2A6#80000700E300A400
(1747656190.431066) can0 227#00007017A00F8813
(1747656190.432057) can0 327#0000000000000000
(1747656190.432976) can0 1A6#35021A00BB135100
(1747656190.433927) can0 2A6#74000600E300A400
(1747656190.470965) can0 227#09007017A00F8813
(1747656190.471965) can0 327#0100000000000000
(1747656190.472884) can0 1A6#23021A00BB135100
(1747656190.473835) can0 2A6#70000600E100A400
(1747656190.511001) can0 227#09007017A00F8813
(1747656190.512000) can0 327#0100000000000000
(1747656190.512919) can0 1A6#13021900BB135100
(1747656190.513862) can0 2A6#66000500E300A400
(1747656190.550964) can0 227#09007017A00F8813
(1747656190.551939) can0 327#9C05000000000000
(1747656190.552874) can0 1A6#E5011300BB135100
(1747656190.553809) can0 2A6#61000500E300A400
(1747656190.590879) can0 227#09007017A00F8813
(1747656190.591863) can0 327#A60D000000000000
(1747656190.592782) can0 1A6#B8010E00BB135100
(1747656190.593733) can0 2A6#60000500E300A400
(1747656190.630915) can0 227#09007017A00F8813
(1747656190.631890) can0 327#F80F000000000000
(1747656190.632825) can0 1A6#80010700BB135100
(1747656190.633760) can0 2A6#62000500E300A400
(1747656190.670918) can0 227#09007017A00F8813
(1747656190.671893) can0 327#4C12000000000000
(1747656190.672812) can0 1A6#47010300BB135100
(1747656190.673755) can0 2A6#5B000500E300A400
(1747656190.710889) can0 227#09007017A00F8813
(1747656190.711872) can0 327#8418000000000000
(1747656190.712811) can0 1A6#DA000400BB135100
(1747656190.713766) can0 2A6#54000400E300A400
(1747656190.750852) can0 227#09007017A00F8813
(1747656190.751835) can0 327#181D000000000000
(1747656190.752762) can0 1A6#CA000800BB135100
(1747656190.753721) can0 2A6#54000400E300A400
(1747656190.790823) can0 227#09007017A00F8813
(1747656190.791798) can0 327#D41F000000000000
(1747656190.792725) can0 1A6#CB000900BB135100
(1747656190.793668) can0 2A6#5E000400E300A400
(1747656190.830818) can0 227#09007017A00F8813
(1747656190.831786) can0 327#4620000000000000
(1747656190.832729) can0 1A6#BF000C00BB135100
(1747656190.833680) can0 2A6#6C000500E400A400
(1747656190.870766) can0 227#09007017A00F8813
(1747656190.871733) can0 327#4620000000000000
(1747656190.872660) can0 1A6#D8001000BB135100
(1747656190.873611) can0 2A6#6C000500E400A400
(1747656190.910729) can0 227#09007017A00F8813
(1747656190.911697) can0 327#4620000000000000
(1747656190.912648) can0 1A6#FE001800B4135100
(1747656190.913583) can0 2A6#4B000500E300A400
(1747656190.950749) can0 227#09007017A00F8813
(1747656190.951716) can0 327#4620000000000000
(1747656190.952651) can0 1A6#38012700B4135100
(1747656190.953587) can0 2A6#43000300E300A400
(1747656190.990681) can0 227#09007017A00F8813
(1747656190.991648) can0 327#4620000000000000
(1747656190.992575) can0 1A6#76013200B4135100
(1747656190.993518) can0 2A6#54000300E300A400
(1747656191.030644) can0 227#09007017A00F8813
(1747656191.031611) can0 327#4620000000000000
(1747656191.032539) can0 1A6#EF013800B4135100
(1747656191.033498) can0 2A6#54000400E300A400
(1747656191.070624) can0 227#09007017A00F8813
(1747656191.071592) can0 327#4620000000000000
(1747656191.072535) can0 1A6#30024600AC135100
(1747656191.073486) can0 2A6#57000400E300A400
(1747656191.110604) can0 227#09007017A00F8813
(1747656191.111571) can0 327#4620000000000000
(1747656191.112490) can0 1A6#6B024E00AC135100
(1747656191.113435) can0 2A6#61000400E300A400
(1747656191.150583) can0 227#09007017A00F8813
(1747656191.151551) can0 327#4620000000000000
(1747656191.152462) can0 1A6#A5026100A5135100
(1747656191.153397) can0 2A6#63000500E300A400
(1747656191.190637) can0 227#09007017A00F8813
(1747656191.191618) can0 327#BE1D000000000000
(1747656191.192545) can0 1A6#12036C00A5135100
(1747656191.193488) can0 2A6#71000500E300A400
(1747656191.230526) can0 227#09007017A00F8813
(1747656191.231501) can0 327#FE1C000000000000
(1747656191.232420) can0 1A6#430375009E135100
(1747656191.233363) can0 2A6#7B000500E300A400
(1747656191.270505) can0 227#09007017A00F8813
(1747656191.271481) can0 327#FE1C000000000000
(1747656191.272400) can0 1A6#740387009E135100
(1747656191.273343) can0 2A6#8A000600E300A400
(1747656191.310469) can0 227#09007017A00F8813
(1747656191.311444) can0 327#FE1C000000000000
(1747656191.312363) can0 1A6#9F03960096135100
(1747656191.313298) can0 2A6#99000600E300A400
(1747656191.350456) can0 227#09007017A00F8813
(1747656191.351434) can0 327#261B000000000000
(1747656191.352359) can0 1A6#F2039C0096135100
(1747656191.353310) can0 2A6#A8000800E300A400
(1747656191.390420) can0 227#09007017A00F8813
(1747656191.391387) can0 327#CC13000000000000
(1747656191.392322) can0 1A6#1A04B2008F135100
(1747656191.393265) can0 2A6#BC000900E300A400
(1747656191.430392) can0 227#09007017A00F8813
(1747656191.431359) can0 327#B601000000000000
(1747656191.432286) can0 1A6#4304BA0088135100
(1747656191.433229) can0 2A6#CF000900E300A400
(1747656191.470379) can0 227#09007017A00F8813
(1747656191.471378) can0 327#0100000000000000
(1747656191.472290) can0 1A6#5C04A50096135100
(1747656191.473225) can0 2A6#D3000B00E300A400
(1747656191.510335) can0 227#09007017A00F8813
(1747656191.511334) can0 327#0100000000000000
(1747656191.512255) can0 1A6#2F048B0096135100
(1747656191.513196) can0 2A6#D6000B00E400A400
(1747656191.550298) can0 227#09007017A00F8813
(1747656191.551298) can0 327#0100000000000000
(1747656191.552209) can0 1A6#F6036E009E135100
(1747656191.553144) can0 2A6#DC000B00E300A400
(1747656191.590334) can0 227#00007017A00F8813
(1747656191.591325) can0 327#0000000000000000
(1747656191.592260) can0 1A6#8A032900B4135100
(1747656191.593195) can0 2A6#CC000B00E300A400
(1747656191.630257) can0 227#00007017A00F8813
(1747656191.631249) can0 327#0000000000000000
(1747656191.632208) can0 1A6#F8020D00B4135100
(1747656191.633162) can0 2A6#B1000B00E400A400
(1747656191.670181) can0 227#09007017A00F8813
(1747656191.671180) can0 327#0100000000000000
(1747656191.672107) can0 1A6#0E020600BB135100
(1747656191.673050) can0 2A6#91000900E400A400
(1747656191.710169) can0 227#09007017A00F8813
(1747656191.711168) can0 327#0100000000000000
(1747656191.712087) can0 1A6#CE010300BB135100
(1747656191.713030) can0 2A6#EF000A00E400A400
(1747656191.750156) can0 227#09007017A00F8813
(1747656191.751123) can0 327#C80D000000000000
(1747656191.752042) can0 1A6#9D010500BB135100
(1747656191.752986) can0 2A6#15010A00E400A400
(1747656191.790144) can0 227#09007017A00F8813
(1747656191.791127) can0 327#AC19000000000000
(1747656191.792071) can0 1A6#81010800B4135100
(1747656191.793013) can0 2A6#E4000E00E400A400
(1747656191.830187) can0 227#09007017A00F8813
(1747656191.831163) can0 327#0223000000000000
(1747656191.832098) can0 1A6#16010300BB135100
(1747656191.833049) can0 2A6#EB000C00E400A400
(1747656191.870095) can0 227#09007017A00F8813
(1747656191.871070) can0 327#B027000000000000
(1747656191.872013) can0 1A6#E2000200B4135100
(1747656191.872964) can0 2A6#0B010C00E400A400
(1747656191.910058) can0 227#09007017A00F8813
(1747656191.911026) can0 327#1629000000000000
(1747656191.911961) can0 1A6#B4000700BB135100
(1747656191.912920) can0 2A6#0B010E00E400A400
(1747656191.950030) can0 227#09007017A00F8813
(1747656191.950997) can0 327#4C29000000000000
(1747656191.951940) can0 1A6#9B000400B4135100
(1747656191.952883) can0 2A6#05010E00E400A400
(1747656191.990010) can0 227#09007017A00F8813
(1747656191.990977) can0 327#4C29000000000000
(1747656191.991904) can0 1A6#AF000C00BB135100
(1747656191.992855) can0 2A6#FF000D00E400A400
(1747656192.029973) can0 227#09007017A00F8813
(1747656192.030932) can0 327#4229000000000000
(1747656192.031875) can0 1A6#C9001400B4135100
(1747656192.032827) can0 2A6#EB000C00E400A400
(1747656192.069945) can0 227#09007017A00F8813
(1747656192.070920) can0 327#2224000000000000
(1747656192.071863) can0 1A6#F8002000B4135100
(1747656192.072830) can0 2A6#DA000C00E400A400
(1747656192.109940) can0 227#09007017A00F8813
(1747656192.110915) can0 327#A41D000000000000
(1747656192.111859) can0 1A6#2D012A00AC135100
(1747656192.112794) can0 2A6#E1000B00E500A400
(1747656192.149896) can0 227#09007017A00F8813
(1747656192.150879) can0 327#7E1A000000000000
(1747656192.151806) can0 1A6#A0013600AC135100
(1747656192.152757) can0 2A6#ED000C00E400A400
(1747656192.189859) can0 227#09007017A00F8813
(1747656192.190834) can0 327#5A17000000000000
(1747656192.191770) can0 1A6#DC014000AC135100
(1747656192.192721) can0 2A6#E2000C00E500A400
(1747656192.229871) can0 227#09007017A00F8813
(1747656192.230862) can0 327#BE15000000000000
(1747656192.231789) can0 1A6#18024D00A5135100
(1747656192.232748) can0 2A6#E8000B00E400A400
(1747656192.269818) can0 227#09007017A00F8813
(1747656192.270797) can0 327#A415000000000000
(1747656192.271713) can0 1A6#52025E00A5135100
(1747656192.272664) can0 2A6#F0000B00E400A400
(1747656192.309790) can0 227#09007017A00F8813
(1747656192.310757) can0 327#F016000000000000
(1747656192.311676) can0 1A6#C0026A009E135100
(1747656192.312627) can0 2A6#F3000C00E400A400
(1747656192.349833) can0 227#09007017A00F8813
(1747656192.350802) can0 327#761A000000000000
(1747656192.351712) can0 1A6#F10279009E135100
(1747656192.352663) can0 2A6#01010D00E400A400
(1747656192.389733) can0 227#09007017A00F8813
(1747656192.390708) can0 327#1C1B000000000000
(1747656192.391635) can0 1A6#1F03850096135100
(1747656192.392594) can0 2A6#08010D00E400A400
(1747656192.429706) can0 227#09007017A00F8813
(1747656192.430696) can0 327#141B000000000000
(1747656192.431607) can0 1A6#4E0396008F135100
(1747656192.432558) can0 2A6#18010E00E400A400
(1747656192.469764) can0 227#09007017A00F8813
(1747656192.470755) can0 327#141B000000000000
(1747656192.471674) can0 1A6#A503A0008F135100
(1747656192.472617) can0 2A6#23010F00E400A400
(1747656192.509640) can0 227#09007017A00F8813
(1747656192.510611) can0 327#C41A000000000000
(1747656192.511542) can0 1A6#CF03B40088135100
(1747656192.512485) can0 2A6#34010F00E400A400
(1747656192.549619) can0 227#09007017A00F8813
(1747656192.550586) can0 327#8215000000000000
(1747656192.551529) can0 1A6#F203BE0088135100
(1747656192.552480) can0 2A6#42011000E400A400
(1747656192.589598) can0 227#09007017A00F8813
(1747656192.590574) can0 327#E209000000000000
(1747656192.591509) can0 1A6#1904D20080135100
(1747656192.592460) can0 2A6#56011000E400A400
(1747656192.629570) can0 227#09007017A00F8813
(1747656192.630569) can0 327#0100000000000000
(1747656192.631512) can0 1A6#3E04C50088135100
(1747656192.632471) can0 2A6#60011200E400A400
(1747656192.669525) can0 227#09007017A00F8813
(1747656192.670525) can0 327#0100000000000000
(1747656192.671468) can0 1A6#2504A10088135100
(1747656192.672403) can0 2A6#61011200E400A400
(1747656192.709497) can0 227#09007017A00F8813
(1747656192.710496) can0 327#0100000000000000
(1747656192.711415) can0 1A6#F6037F0096135100
(1747656192.712358) can0 2A6#65011200E400A400
(1747656192.749492) can0 227#09007017A00F8813
(1747656192.750492) can0 327#0100000000000000
(1747656192.751411) can0 1A6#B3035B009E135100
(1747656192.752362) can0 2A6#68011300E400A400
(1747656192.789443) can0 227#09007017A00F8813
(1747656192.790443) can0 327#0100000000000000
(1747656192.791382) can0 1A6#01033900A5135100
(1747656192.792309) can0 2A6#76011300E500A400
(1747656192.829411) can0 227#09007017A00F8813
(1747656192.830411) can0 327#0100000000000000
(1747656192.831338) can0 1A6#9D022200AC135100
(1747656192.832289) can0 2A6#81011300E400A400
(1747656192.869423) can0 227#09007017A00F8813
(1747656192.870398) can0 327#3007000000000000
(1747656192.871333) can0 1A6#3C021700AC135100
(1747656192.872276) can0 2A6#7F011400E500A400
(1747656192.909362) can0 227#09007017A00F8813
(1747656192.910354) can0 327#7C14000000000000
(1747656192.911273) can0 1A6#E6011100AC135100
(1747656192.912216) can0 2A6#7F011400E500A400
(1747656192.949335) can0 227#09007017A00F8813
(1747656192.950309) can0 327#E01A000000000000
(1747656192.951252) can0 1A6#70011400AC135100
(1747656192.952187) can0 2A6#85011400E500A400
(1747656192.989353) can0 227#09007017A00F8813
(1747656192.990337) can0 327#2E1F000000000000
(1747656192.991256) can0 1A6#53011600AC135100
(1747656192.992183) can0 2A6#8C011500E500A400
(1747656193.029285) can0 227#09007017A00F8813
(1747656193.030260) can0 327#2821000000000000
(1747656193.031195) can0 1A6#45011C00AC135100
(1747656193.032122) can0 2A6#8C011500E500A400
(1747656193.069256) can0 227#09007017A00F8813
(1747656193.070231) can0 327#3822000000000000
(1747656193.071159) can0 1A6#45012200AC135100
(1747656193.072094) can0 2A6#88011500E500A400
(1747656193.109308) can0 227#09007017A00F8813
(1747656193.110283) can0 327#3022000000000000
(1747656193.111218) can0 1A6#6B012C00AC135100
(1747656193.112153) can0 2A6#87011400E500A400
(1747656193.149199) can0 227#09007017A00F8813
(1747656193.150166) can0 327#721C000000000000
(1747656193.151086) can0 1A6#8D013400A5135100
(1747656193.152029) can0 2A6#88011400E600A400
(1747656193.189171) can0 227#09007017A00F8813
(1747656193.190138) can0 327#920E000000000000
(1747656193.191049) can0 1A6#B5014200A5135100
(1747656193.191984) can0 2A6#87011400E500A400
(1747656193.229134) can0 227#09007017A00F8813
(1747656193.230133) can0 327#7C00000000000000
(1747656193.231053) can0 1A6#E3014B009E135100
(1747656193.231996) can0 2A6#89011400E600A400
(1747656193.269122) can0 227#09007017A00F8813
(1747656193.270121) can0 327#0100000000000000
(1747656193.271048) can0 1A6#23024700AC135100
(1747656193.271999) can0 2A6#88011400E500A400
(1747656193.309085) can0 227#09007017A00F8813
(1747656193.310084) can0 327#0100000000000000
(1747656193.311020) can0 1A6#10022F00AC135100
(1747656193.311963) can0 2A6#81011400E500A400
(1747656193.349057) can0 227#09007017A00F8813
(1747656193.350057) can0 327#0100000000000000
(1747656193.350999) can0 1A6#F0012400AC135100
(1747656193.351942) can0 2A6#80011400E500A400
(1747656193.389052) can0 227#09007017A00F8813
(1747656193.390051) can0 327#0100000000000000
(1747656193.390971) can0 1A6#CD011B00AC135100
(1747656193.391914) can0 2A6#7B011400E500A400
(1747656193.428992) can0 227#09007017A00F8813
(1747656193.429975) can0 327#1603000000000000
(1747656193.430902) can0 1A6#78011300B4135100
(1747656193.431838) can0 2A6#72011300E500A400
(1747656193.468956) can0 227#09007017A00F8813
(1747656193.469931) can0 327#620C000000000000
(1747656193.470850) can0 1A6#53011100AC135100
(1747656193.471793) can0 2A6#70011300E500A400
(1747656193.508983) can0 227#09007017A00F8813
(1747656193.509975) can0 327#0C13000000000000
(1747656193.510910) can0 1A6#38011300B4135100
(1747656193.511845) can0 2A6#75011300E500A400
(1747656193.548923) can0 227#09007017A00F8813
(1747656193.549890) can0 327#AA16000000000000
(1747656193.550825) can0 1A6#28011700AC135100
(1747656193.551752) can0 2A6#7B011300E500A400
(1747656193.588894) can0 227#09007017A00F8813
(1747656193.589861) can0 327#CC17000000000000
(1747656193.590789) can0 1A6#2B011900B4135100
(1747656193.591732) can0 2A6#7F011400E500A400
(1747656193.628914) can0 227#09007017A00F8813
(1747656193.629897) can0 327#301A000000000000
(1747656193.630824) can0 1A6#3B012300AC135100
(1747656193.631759) can0 2A6#7A011400E500A400
(1747656193.668837) can0 227#09007017A00F8813
(1747656193.669828) can0 327#2C1C000000000000
(1747656193.670756) can0 1A6#59012A00AC135100
(1747656193.671699) can0 2A6#78011400E600A400
(1747656193.708817) can0 227#09007017A00F8813
(1747656193.709792) can0 327#FE1C000000000000
(1747656193.710735) can0 1A6#7C013200AC135100
(1747656193.711679) can0 2A6#7E011400E500A400
(1747656193.748869) can0 227#09007017A00F8813
(1747656193.749836) can0 327#AC1D000000000000
(1747656193.750780) can0 1A6#CA013E00A5135100
(1747656193.751722) can0 2A6#81011400E500A400
(1747656193.788752) can0 227#09007017A00F8813
(1747656193.789727) can0 327#D01D000000000000
(1747656193.790655) can0 1A6#F9014900A5135100
(1747656193.791598) can0 2A6#7E011400E500A400
(1747656193.828732) can0 227#09007017A00F8813
(1747656193.829707) can0 327#D01D000000000000
(1747656193.830634) can0 1A6#2C0259009E135100
(1747656193.831569) can0 2A6#86011400E500A400
(1747656193.868711) can0 227#09007017A00F8813
(1747656193.869686) can0 327#D01D000000000000
(1747656193.870614) can0 1A6#600265009E135100
(1747656193.871549) can0 2A6#87011400E500A400
(1747656193.908691) can0 227#09007017A00F8813
(1747656193.909666) can0 327#D01D000000000000
(1747656193.910593) can0 1A6#C00277009E135100
(1747656193.911536) can0 2A6#90011400E500A400
(1747656193.948654) can0 227#09007017A00F8813
(1747656193.949629) can0 327#D01D000000000000
(1747656193.950541) can0 1A6#ED028A008F135100
(1747656193.951468) can0 2A6#96011500E500A400
(1747656193.988626) can0 227#09007017A00F8813
(1747656193.989602) can0 327#A41D000000000000
(1747656193.990545) can0 1A6#1B0394008F135100
(1747656193.991488) can0 2A6#A0011500E400A400
(1747656194.028630) can0 227#09007017A00F8813
(1747656194.029589) can0 327#5E15000000000000
(1747656194.030508) can0 1A6#4603A20088135100
(1747656194.031443) can0 2A6#AC011600E400A400
(1747656194.068577) can0 227#09007017A00F8813
(1747656194.069545) can0 327#7209000000000000
(1747656194.070480) can0 1A6#9803B30080135100
(1747656194.071407) can0 2A6#B5011700E500A400
(1747656194.108533) can0 227#09007017A00F8813
(1747656194.109532) can0 327#0100000000000000
(1747656194.110459) can0 1A6#AC03AE0088135100
(1747656194.111394) can0 2A6#BC011700E500A400
(1747656194.148544) can0 227#09007017A00F8813
(1747656194.149544) can0 327#0100000000000000
(1747656194.150479) can0 1A6#A30390008F135100
(1747656194.151414) can0 2A6#BA011700E500A400
(1747656194.188492) can0 227#00007017A00F8813
(1747656194.189483) can0 327#0000000000000000
(1747656194.190418) can0 1A6#82036C0096135100
(1747656194.191353) can0 2A6#BC011700E500A400
(1747656194.228471) can0 227#00007017A00F8813
(1747656194.229463) can0 327#0000000000000000
(1747656194.230398) can0 1A6#D3023200AC135100
(1747656194.231333) can0 2A6#A8011700E500A400
(1747656194.268483) can0 227#00007017A00F8813
(1747656194.269474) can0 327#0000000000000000
(1747656194.270401) can0 1A6#4E020B00AC135100
(1747656194.271328) can0 2A6#96011500E500A400
(1747656194.308411) can0 227#00007017A00F8813
(1747656194.309397) can0 327#0000000000000000
(1747656194.310333) can0 1A6#F201FEFFB4135100
(1747656194.311268) can0 2A6#6B011500E500A400
(1747656194.348370) can0 227#00007017A00F8813
(1747656194.349361) can0 327#0000000000000000
(1747656194.350296) can0 1A6#BC01FEFFB4135100
(1747656194.351224) can0 2A6#73011200E500A400
(1747656194.388318) can0 227#09007017A00F8813
(1747656194.389317) can0 327#0100000000000000
(1747656194.390236) can0 1A6#8D01FEFFBB135100
(1747656194.391171) can0 2A6#C9011800E500A400
(1747656194.428233) can0 227#09007017A00F8813
(1747656194.429232) can0 327#0100000000000000
(1747656194.430176) can0 1A6#8E010400B4135100
(1747656194.431119) can0 2A6#A0011800E500A400
(1747656194.468269) can0 227#09007017A00F8813
(1747656194.469252) can0 327#BE01000000000000
(1747656194.470179) can0 1A6#97011800B4135100
(1747656194.471130) can0 2A6#70011400E500A400
(1747656194.508248) can0 227#09007017A00F8813
(1747656194.509215) can0 327#6809000000000000
(1747656194.510135) can0 1A6#EE011500B4135100
(1747656194.511078) can0 2A6#8B011400E500A400
(1747656194.548236) can0 227#09007017A00F8813
(1747656194.549211) can0 327#840F000000000000
(1747656194.550138) can0 1A6#50021500B4135100
(1747656194.551073) can0 2A6#78011500E500A400
(1747656194.588199) can0 227#09007017A00F8813
(1747656194.589182) can0 327#5014000000000000
(1747656194.590118) can0 1A6#48020F00B4135100
(1747656194.591045) can0 2A6#77011300E500A400
(1747656194.628179) can0 227#09007017A00F8813
(1747656194.629146) can0 327#E215000000000000
(1747656194.630089) can0 1A6#27020800B4135100
(1747656194.631017) can0 2A6#84011300E500A400
(1747656194.668167) can0 227#09007017A00F8813
(1747656194.669131) can0 327#6E16000000000000
(1747656194.670053) can0 1A6#EE010700B4135100
(1747656194.670988) can0 2A6#6F011400E500A400
(1747656194.708122) can0 227#09007017A00F8813
(1747656194.709081) can0 327#6E16000000000000
(1747656194.710009) can0 1A6#57010200B4135100
(1747656194.710936) can0 2A6#6B011300E500A400
(1747656194.748086) can0 227#09007017A00F8813
(1747656194.749045) can0 327#6E16000000000000
(1747656194.749980) can0 1A6#31010F00B4135100
(1747656194.750908) can0 2A6#6A011300E500A400
(1747656194.788098) can0 227#09007017A00F8813
(1747656194.789057) can0 327#6E16000000000000
(1747656194.790008) can0 1A6#03010400B4135100
(1747656194.790937) can0 2A6#6D011300E500A400
(1747656194.828029) can0 227#09007017A00F8813
(1747656194.828988) can0 327#6E16000000000000
(1747656194.829924) can0 1A6#F6000D00B4135100
(1747656194.830851) can0 2A6#76011300E500A400
(1747656194.868009) can0 227#09007017A00F8813
(1747656194.868968) can0 327#5E15000000000000
(1747656194.869903) can0 1A6#EF000E00B4135100
